time	V(VSW,VO)	V(Vd,VSW)	V(vo)	V(vsw)	I(C1)	I(D1)	I(L1)	I(Ro)	Id(M1)
0.000000000000000e+00	-2.503984e+01	1.196419e+01	2.507565e+01	3.580678e-02	-7.625068e-02	3.772955e-02	4.802260e-01	1.139802e-01	4.424965e-01
2.199983251127691e-12	-2.503937e+01	1.196372e+01	2.507565e+01	3.627958e-02	-9.327008e-02	2.071015e-02	4.802261e-01	1.139802e-01	4.595160e-01
6.599949753383072e-12	-2.503892e+01	1.196327e+01	2.507565e+01	3.673063e-02	-1.090689e-01	4.911294e-03	4.802263e-01	1.139802e-01	4.753152e-01
1.539988969678774e-11	-2.503876e+01	1.196311e+01	2.507565e+01	3.689085e-02	-1.141971e-01	-2.168373e-04	4.802268e-01	1.139802e-01	4.804438e-01
3.067854997818031e-11	-2.503876e+01	1.196311e+01	2.507565e+01	3.688673e-02	-1.139048e-01	7.539296e-05	4.802276e-01	1.139802e-01	4.801523e-01
6.123587747985937e-11	-2.503876e+01	1.196311e+01	2.507565e+01	3.688864e-02	-1.140064e-01	-2.615594e-05	4.802292e-01	1.139802e-01	4.802554e-01
1.223505255443236e-10	-2.503876e+01	1.196311e+01	2.507565e+01	3.688832e-02	-1.139688e-01	1.141556e-05	4.802325e-01	1.139802e-01	4.802211e-01
2.445798216732520e-10	-2.503876e+01	1.196311e+01	2.507565e+01	3.688937e-02	-1.139826e-01	-2.365353e-06	4.802390e-01	1.139802e-01	4.802414e-01
4.087499574922937e-10	-2.503875e+01	1.196311e+01	2.507565e+01	3.689054e-02	-1.139797e-01	5.467362e-07	4.802477e-01	1.139802e-01	4.802472e-01
5.739579228558611e-10	-2.503875e+01	1.196311e+01	2.507564e+01	3.689197e-02	-1.139807e-01	-4.593025e-07	4.802565e-01	1.139802e-01	4.802570e-01
7.596516540808729e-10	-2.503875e+01	1.196311e+01	2.507564e+01	3.689364e-02	-1.139784e-01	1.806920e-06	4.802664e-01	1.139802e-01	4.802646e-01
1.000000089679265e-09	-2.503875e+01	1.196311e+01	2.507564e+01	3.688934e-02	-1.136436e-01	3.365923e-04	4.802792e-01	1.139802e-01	4.799426e-01
1.024034933239104e-09	-2.503874e+01	1.196311e+01	2.507564e+01	3.689384e-02	-1.138605e-01	1.197142e-04	4.802805e-01	1.139802e-01	4.801608e-01
1.072104620358783e-09	-2.503874e+01	1.196310e+01	2.507564e+01	3.689661e-02	-1.139791e-01	1.031145e-06	4.802831e-01	1.139802e-01	4.802820e-01
1.168243994598139e-09	-2.503874e+01	1.196310e+01	2.507564e+01	3.689739e-02	-1.139801e-01	8.357256e-08	4.802882e-01	1.139802e-01	4.802881e-01
1.360522743076853e-09	-2.503874e+01	1.196310e+01	2.507563e+01	3.689864e-02	-1.139797e-01	4.508270e-07	4.802985e-01	1.139802e-01	4.802980e-01
1.722212608634699e-09	-2.503873e+01	1.196310e+01	2.507563e+01	3.690042e-02	-1.139799e-01	2.716916e-07	4.803177e-01	1.139801e-01	4.803174e-01
2.074680469088541e-09	-2.503872e+01	1.196310e+01	2.507563e+01	3.690160e-02	-1.139798e-01	2.717038e-07	4.803365e-01	1.139801e-01	4.803362e-01
2.567406877374001e-09	-2.503872e+01	1.196310e+01	2.507562e+01	3.690235e-02	-1.139799e-01	2.202319e-07	4.803627e-01	1.139801e-01	4.803625e-01
2.839660798170662e-09	-2.503871e+01	1.196310e+01	2.507562e+01	3.690189e-02	-1.139802e-01	-1.188538e-07	4.803773e-01	1.139801e-01	4.803774e-01
2.993724532163178e-09	-2.503871e+01	1.196310e+01	2.507561e+01	3.690076e-02	-1.139802e-01	-1.206939e-07	4.803855e-01	1.139801e-01	4.803856e-01
3.137682329235059e-09	-2.503872e+01	1.196310e+01	2.507561e+01	3.689870e-02	-1.139804e-01	-3.147103e-07	4.803931e-01	1.139801e-01	4.803934e-01
3.281141178201885e-09	-2.503872e+01	1.196310e+01	2.507561e+01	3.689546e-02	-1.139807e-01	-6.221778e-07	4.804008e-01	1.139801e-01	4.804014e-01
3.487049447803425e-09	-2.503872e+01	1.196311e+01	2.507561e+01	3.688826e-02	-1.139808e-01	-7.473806e-07	4.804118e-01	1.139800e-01	4.804125e-01
3.877992225953530e-09	-2.503874e+01	1.196313e+01	2.507561e+01	3.686775e-02	-1.139815e-01	-1.431957e-06	4.804326e-01	1.139800e-01	4.804340e-01
4.443619756877570e-09	-2.503877e+01	1.196317e+01	2.507560e+01	3.682704e-02	-1.139820e-01	-2.007234e-06	4.804627e-01	1.139800e-01	4.804647e-01
5.057793933671562e-09	-2.503882e+01	1.196323e+01	2.507559e+01	3.677304e-02	-1.139823e-01	-2.369637e-06	4.804955e-01	1.139800e-01	4.804978e-01
5.696550856026938e-09	-2.503887e+01	1.196329e+01	2.507558e+01	3.671185e-02	-1.139824e-01	-2.455036e-06	4.805295e-01	1.139799e-01	4.805319e-01
6.378775223303546e-09	-2.503893e+01	1.196335e+01	2.507558e+01	3.664536e-02	-1.139823e-01	-2.453853e-06	4.805658e-01	1.139799e-01	4.805683e-01
6.998178460337900e-09	-2.503899e+01	1.196342e+01	2.507557e+01	3.658289e-02	-1.139826e-01	-2.714744e-06	4.805988e-01	1.139799e-01	4.806015e-01
7.471983226592371e-09	-2.503904e+01	1.196348e+01	2.507557e+01	3.652170e-02	-1.139842e-01	-4.312938e-06	4.806241e-01	1.139798e-01	4.806284e-01
7.827992927478267e-09	-2.503912e+01	1.196356e+01	2.507556e+01	3.644280e-02	-1.139871e-01	-7.316190e-06	4.806431e-01	1.139798e-01	4.806504e-01
8.234244487648201e-09	-2.503925e+01	1.196370e+01	2.507556e+01	3.630223e-02	-1.139906e-01	-1.078058e-05	4.806647e-01	1.139798e-01	4.806755e-01
8.596152095696752e-09	-2.503941e+01	1.196385e+01	2.507555e+01	3.614531e-02	-1.139920e-01	-1.226442e-05	4.806840e-01	1.139798e-01	4.806963e-01
8.994111538873639e-09	-2.503959e+01	1.196404e+01	2.507555e+01	3.595873e-02	-1.139924e-01	-1.263355e-05	4.807052e-01	1.139798e-01	4.807178e-01
9.790030425227414e-09	-2.503995e+01	1.196441e+01	2.507554e+01	3.559327e-02	-1.139917e-01	-1.199422e-05	4.807476e-01	1.139797e-01	4.807596e-01
1.093869126528313e-08	-2.504039e+01	1.196486e+01	2.507553e+01	3.513526e-02	-1.139899e-01	-1.020680e-05	4.808088e-01	1.139797e-01	4.808190e-01
1.302893395949134e-08	-2.504099e+01	1.196549e+01	2.507550e+01	3.450679e-02	-1.139860e-01	-6.450698e-06	4.809202e-01	1.139795e-01	4.809268e-01
1.505044820715451e-08	-2.504138e+01	1.196590e+01	2.507548e+01	3.410112e-02	-1.139830e-01	-3.604899e-06	4.810280e-01	1.139794e-01	4.810316e-01
1.651755711373770e-08	-2.504154e+01	1.196608e+01	2.507546e+01	3.392225e-02	-1.139816e-01	-2.194145e-06	4.811061e-01	1.139794e-01	4.811084e-01
1.773556274065058e-08	-2.504162e+01	1.196617e+01	2.507545e+01	3.383081e-02	-1.139805e-01	-1.232939e-06	4.811710e-01	1.139793e-01	4.811723e-01
1.848974643531287e-08	-2.504164e+01	1.196620e+01	2.507544e+01	3.379577e-02	-1.139799e-01	-6.508684e-07	4.812112e-01	1.139793e-01	4.812119e-01
1.894943841423968e-08	-2.504165e+01	1.196621e+01	2.507543e+01	3.378640e-02	-1.139791e-01	1.906774e-07	4.812357e-01	1.139792e-01	4.812356e-01
1.926261904844351e-08	-2.504164e+01	1.196621e+01	2.507543e+01	3.378966e-02	-1.139783e-01	8.814102e-07	4.812524e-01	1.139792e-01	4.812516e-01
1.959389969719005e-08	-2.504162e+01	1.196620e+01	2.507543e+01	3.380127e-02	-1.139779e-01	1.335944e-06	4.812701e-01	1.139792e-01	4.812688e-01
1.986947215093515e-08	-2.504161e+01	1.196619e+01	2.507542e+01	3.381399e-02	-1.139777e-01	1.497002e-06	4.812848e-01	1.139792e-01	4.812833e-01
2.021733109397461e-08	-2.504159e+01	1.196617e+01	2.507542e+01	3.383247e-02	-1.139775e-01	1.666380e-06	4.813033e-01	1.139792e-01	4.813017e-01
2.057182725556661e-08	-2.504156e+01	1.196615e+01	2.507541e+01	3.385375e-02	-1.139773e-01	1.871047e-06	4.813222e-01	1.139792e-01	4.813204e-01
2.080065607951154e-08	-2.504154e+01	1.196613e+01	2.507541e+01	3.386953e-02	-1.139771e-01	2.081768e-06	4.813344e-01	1.139791e-01	4.813323e-01
2.110658081644345e-08	-2.504152e+01	1.196611e+01	2.507541e+01	3.389322e-02	-1.139768e-01	2.293820e-06	4.813507e-01	1.139791e-01	4.813484e-01
2.127437160465151e-08	-2.504150e+01	1.196609e+01	2.507541e+01	3.390715e-02	-1.139766e-01	2.544122e-06	4.813597e-01	1.139791e-01	4.813571e-01
2.138551451202897e-08	-2.504149e+01	1.196608e+01	2.507541e+01	3.391678e-02	-1.139765e-01	2.581428e-06	4.813656e-01	1.139791e-01	4.813630e-01
2.154899005069044e-08	-2.504147e+01	1.196607e+01	2.507541e+01	3.393117e-02	-1.139765e-01	2.579636e-06	4.813743e-01	1.139791e-01	4.813717e-01
2.167343308295822e-08	-2.504146e+01	1.196606e+01	2.507540e+01	3.394223e-02	-1.139765e-01	2.599827e-06	4.813809e-01	1.139791e-01	4.813783e-01
2.183234015101787e-08	-2.504144e+01	1.196604e+01	2.507540e+01	3.395649e-02	-1.139765e-01	2.545946e-06	4.813894e-01	1.139791e-01	4.813868e-01
2.202143740970275e-08	-2.504143e+01	1.196603e+01	2.507540e+01	3.397357e-02	-1.139765e-01	2.583776e-06	4.813995e-01	1.139791e-01	4.813969e-01
2.219964173599820e-08	-2.504141e+01	1.196601e+01	2.507540e+01	3.398978e-02	-1.139765e-01	2.539967e-06	4.814090e-01	1.139791e-01	4.814065e-01
2.255605038858910e-08	-2.504137e+01	1.196598e+01	2.507539e+01	3.402248e-02	-1.139764e-01	2.642198e-06	4.814280e-01	1.139791e-01	4.814253e-01
2.304145382131528e-08	-2.504132e+01	1.196593e+01	2.507539e+01	3.406749e-02	-1.139764e-01	2.634231e-06	4.814538e-01	1.139790e-01	4.814512e-01
2.386575027185645e-08	-2.504123e+01	1.196586e+01	2.507538e+01	3.414484e-02	-1.139763e-01	2.691005e-06	4.814978e-01	1.139790e-01	4.814951e-01
2.472198021991057e-08	-2.504114e+01	1.196577e+01	2.507537e+01	3.422631e-02	-1.139762e-01	2.714790e-06	4.815434e-01	1.139789e-01	4.815407e-01
2.600708323696743e-08	-2.504100e+01	1.196565e+01	2.507535e+01	3.435037e-02	-1.139761e-01	2.765826e-06	4.816119e-01	1.139789e-01	4.816091e-01
2.728296659426643e-08	-2.504086e+01	1.196552e+01	2.507534e+01	3.447549e-02	-1.139760e-01	2.799793e-06	4.816799e-01	1.139788e-01	4.816771e-01
2.909541153839346e-08	-2.504066e+01	1.196534e+01	2.507532e+01	3.465634e-02	-1.139759e-01	2.856766e-06	4.817765e-01	1.139787e-01	4.817736e-01
3.100016288809515e-08	-2.504045e+01	1.196515e+01	2.507530e+01	3.485012e-02	-1.139757e-01	2.906723e-06	4.818780e-01	1.139786e-01	4.818752e-01
3.348140659859000e-08	-2.504016e+01	1.196489e+01	2.507527e+01	3.510854e-02	-1.139755e-01	2.980502e-06	4.820102e-01	1.139785e-01	4.820074e-01
3.653757608967911e-08	-2.503980e+01	1.196456e+01	2.507523e+01	3.543624e-02	-1.139753e-01	3.066660e-06	4.821731e-01	1.139783e-01	4.821704e-01
4.052593575304408e-08	-2.503931e+01	1.196412e+01	2.507519e+01	3.588170e-02	-1.139749e-01	3.194488e-06	4.823856e-01	1.139781e-01	4.823840e-01
4.658850201455511e-08	-2.503852e+01	1.196340e+01	2.507512e+01	3.660014e-02	-1.139744e-01	3.401734e-06	4.827086e-01	1.139778e-01	4.827127e-01
5.504566673308897e-08	-2.503730e+01	1.196228e+01	2.507502e+01	3.771724e-02	-1.139736e-01	3.752740e-06	4.831591e-01	1.139774e-01	4.832200e-01
7.195999616321780e-08	-2.503427e+01	1.195944e+01	2.507483e+01	4.056061e-02	-1.139717e-01	4.752918e-06	4.840600e-01	1.139765e-01	4.842181e-01
1.057886550234755e-07	-2.502543e+01	1.195099e+01	2.507444e+01	4.901045e-02	-1.139662e-01	8.538875e-06	4.858609e-01	1.139747e-01	4.859275e-01
1.369322186473010e-07	-2.501162e+01	1.193753e+01	2.507409e+01	6.247332e-02	-1.139563e-01	1.684432e-05	4.875174e-01	1.139731e-01	4.875024e-01
1.593965640867001e-07	-2.499304e+01	1.191921e+01	2.507383e+01	8.079202e-02	-1.139395e-01	3.244292e-05	4.887108e-01	1.139720e-01	4.886803e-01
1.748892404923597e-07	-2.496887e+01	1.189522e+01	2.507366e+01	1.047820e-01	-1.139112e-01	6.000693e-05	4.895323e-01	1.139712e-01	4.894737e-01
1.861431735070140e-07	-2.493621e+01	1.186268e+01	2.507353e+01	1.373178e-01	-1.138613e-01	1.092403e-04	4.901277e-01	1.139706e-01	4.900194e-01
1.947961629361616e-07	-2.488979e+01	1.181637e+01	2.507343e+01	1.836343e-01	-1.137710e-01	1.991021e-04	4.905839e-01	1.139701e-01	4.903862e-01
2.018169449197194e-07	-2.481972e+01	1.174637e+01	2.507335e+01	2.536321e-01	-1.136041e-01	3.656541e-04	4.909522e-01	1.139698e-01	4.905917e-01
2.079073298869027e-07	-2.470436e+01	1.163108e+01	2.507328e+01	3.689171e-01	-1.133261e-01	6.433554e-04	4.912689e-01	1.139695e-01	4.907022e-01
2.149831384440359e-07	-2.449836e+01	1.142516e+01	2.507320e+01	5.748424e-01	-1.130520e-01	9.170782e-04	4.916319e-01	1.139691e-01	4.908675e-01
2.206561579079502e-07	-2.430372e+01	1.123058e+01	2.507314e+01	7.694179e-01	-1.130076e-01	9.611803e-04	4.919178e-01	1.139688e-01	4.910473e-01
2.268283027795359e-07	-2.408622e+01	1.101315e+01	2.507307e+01	9.868451e-01	-1.130093e-01	9.592382e-04	4.922220e-01	1.139685e-01	4.912997e-01
2.364027897536203e-07	-2.374890e+01	1.067595e+01	2.507296e+01	1.324053e+00	-1.129950e-01	9.730192e-04	4.926796e-01	1.139680e-01	4.917600e-01
2.519201049433484e-07	-2.320017e+01	1.012738e+01	2.507278e+01	1.872615e+00	-1.129835e-01	9.836905e-04	4.933825e-01	1.139672e-01	4.924499e-01
2.829547353297435e-07	-2.206890e+01	8.996462e+00	2.507243e+01	3.003538e+00	-1.128973e-01	1.068348e-03	4.946747e-01	1.139656e-01	4.936206e-01
3.156562868728008e-07	-2.064305e+01	7.570988e+00	2.507206e+01	4.429012e+00	-1.124301e-01	1.533794e-03	4.958760e-01	1.139639e-01	4.943071e-01
3.434125161391743e-07	-1.882738e+01	5.755630e+00	2.507175e+01	6.244370e+00	-1.115036e-01	2.458960e-03	4.966840e-01	1.139625e-01	4.941980e-01
3.747263390627142e-07	-1.590169e+01	2.830289e+00	2.507141e+01	9.169711e+00	-1.103799e-01	3.580991e-03	4.972519e-01	1.139609e-01	4.936807e-01
4.053474032955640e-07	-1.248038e+01	-5.906897e-01	2.507107e+01	1.259069e+01	-1.094979e-01	4.461494e-03	4.973540e-01	1.139594e-01	4.929238e-01
4.412397293582226e-07	-8.182537e+00	-4.888142e+00	2.507068e+01	1.688814e+01	-1.082744e-01	5.683272e-03	4.969195e-01	1.139576e-01	4.912670e-01
4.613647366716322e-07	-5.704479e+00	-7.365982e+00	2.507046e+01	1.936598e+01	-1.071844e-01	6.772212e-03	4.963732e-01	1.139566e-01	4.896275e-01
4.839538649270558e-07	-2.884148e+00	-1.018607e+01	2.507022e+01	2.218607e+01	-1.049963e-01	8.959254e-03	4.954771e-01	1.139555e-01	4.865420e-01
4.945951078347277e-07	-1.548128e+00	-1.152198e+01	2.507011e+01	2.352198e+01	-1.031176e-01	1.083746e-02	4.949643e-01	1.139550e-01	4.841427e-01
5.012039452287342e-07	-7.162533e-01	-1.235379e+01	2.507004e+01	2.435379e+01	-1.010442e-01	1.291052e-02	4.946046e-01	1.139547e-01	4.817052e-01
5.051311005033199e-07	-2.216454e-01	-1.284836e+01	2.507000e+01	2.484836e+01	-9.916826e-02	1.478630e-02	4.943776e-01	1.139546e-01	4.795991e-01
5.075227171372210e-07	7.899475e-02	-1.314897e+01	2.506998e+01	2.514897e+01	-9.706717e-02	1.688728e-02	4.942344e-01	1.139544e-01	4.773516e-01
5.090028851670314e-07	2.624760e-01	-1.333244e+01	2.506997e+01	2.533244e+01	-9.166583e-02	2.228855e-02	4.941440e-01	1.139544e-01	4.719181e-01
5.098961668031921e-07	3.662529e-01	-1.343621e+01	2.506996e+01	2.543621e+01	-7.814543e-02	3.580892e-02	4.940888e-01	1.139544e-01	4.583790e-01
5.104812234174583e-07	4.242706e-01	-1.349422e+01	2.506995e+01	2.549422e+01	-5.663566e-02	5.731867e-02	4.940523e-01	1.139543e-01	4.367878e-01
5.110975038954968e-07	4.731464e-01	-1.354310e+01	2.506995e+01	2.554310e+01	-2.094054e-02	9.301379e-02	4.940138e-01	1.139543e-01	4.010085e-01
5.117495822035134e-07	5.132637e-01	-1.358322e+01	2.506995e+01	2.558322e+01	2.583330e-02	1.397876e-01	4.939728e-01	1.139543e-01	3.541997e-01
5.126647513870042e-07	5.548248e-01	-1.362478e+01	2.506996e+01	2.562478e+01	9.572309e-02	2.096774e-01	4.939151e-01	1.139544e-01	2.842735e-01
5.141464367725002e-07	6.025314e-01	-1.367251e+01	2.506998e+01	2.567251e+01	1.977393e-01	3.116937e-01	4.938215e-01	1.139545e-01	1.821936e-01
5.158856303602577e-07	6.402740e-01	-1.371030e+01	2.507003e+01	2.571030e+01	2.829488e-01	3.969035e-01	4.937113e-01	1.139547e-01	9.685788e-02
5.180766130610803e-07	6.708736e-01	-1.374097e+01	2.507010e+01	2.574097e+01	3.382105e-01	4.521654e-01	4.935721e-01	1.139550e-01	4.142197e-02
5.202341194984750e-07	6.901932e-01	-1.376036e+01	2.507017e+01	2.576036e+01	3.566796e-01	4.706349e-01	4.934348e-01	1.139553e-01	2.280346e-02
5.232845080166415e-07	7.076435e-01	-1.377792e+01	2.507028e+01	2.577792e+01	3.616360e-01	4.755918e-01	4.932404e-01	1.139558e-01	1.764929e-02
5.279673608374336e-07	7.246990e-01	-1.379515e+01	2.507045e+01	2.579515e+01	3.634803e-01	4.774369e-01	4.929416e-01	1.139566e-01	1.550531e-02
5.373330664790177e-07	7.445602e-01	-1.381535e+01	2.507079e+01	2.581535e+01	3.655219e-01	4.794801e-01	4.923431e-01	1.139581e-01	1.286439e-02
5.560644777552470e-07	7.663536e-01	-1.383783e+01	2.507148e+01	2.583783e+01	3.682501e-01	4.822114e-01	4.911446e-01	1.139613e-01	8.935099e-03
5.752162161795638e-07	7.783184e-01	-1.385050e+01	2.507219e+01	2.585050e+01	3.698534e-01	4.838178e-01	4.899180e-01	1.139645e-01	6.102339e-03
5.970664800000747e-07	7.854042e-01	-1.385840e+01	2.507299e+01	2.585840e+01	3.705639e-01	4.845321e-01	4.885176e-01	1.139682e-01	3.988685e-03
6.212770283439695e-07	7.896729e-01	-1.386357e+01	2.507389e+01	2.586357e+01	3.704990e-01	4.844712e-01	4.869653e-01	1.139722e-01	2.496504e-03
6.463287711908072e-07	7.918835e-01	-1.386670e+01	2.507482e+01	2.586670e+01	3.698300e-01	4.838064e-01	4.853587e-01	1.139765e-01	1.553136e-03
6.737497777672963e-07	7.929535e-01	-1.386879e+01	2.507583e+01	2.586879e+01	3.686695e-01	4.826506e-01	4.836000e-01	1.139811e-01	9.496407e-04
7.044631386288192e-07	7.933998e-01	-1.387036e+01	2.507696e+01	2.587036e+01	3.670737e-01	4.810599e-01	4.816299e-01	1.139862e-01	5.699745e-04
7.401105159496324e-07	7.934666e-01	-1.387173e+01	2.507827e+01	2.587173e+01	3.650137e-01	4.790058e-01	4.793434e-01	1.139921e-01	3.374423e-04
7.829224785566025e-07	7.932739e-01	-1.387309e+01	2.507982e+01	2.587309e+01	3.623988e-01	4.763980e-01	4.765972e-01	1.139992e-01	1.989844e-04
8.356338325674062e-07	7.928734e-01	-1.387459e+01	2.508172e+01	2.587459e+01	3.590876e-01	4.730955e-01	4.732161e-01	1.140078e-01	1.203051e-04
9.054379850187422e-07	7.922516e-01	-1.387646e+01	2.508421e+01	2.587646e+01	3.546449e-01	4.686640e-01	4.687386e-01	1.140191e-01	7.443796e-05
9.983004433736231e-07	7.913761e-01	-1.387884e+01	2.508746e+01	2.587884e+01	3.486998e-01	4.627337e-01	4.627824e-01	1.140339e-01	4.867500e-05
1.134853426953963e-06	7.900581e-01	-1.388220e+01	2.509214e+01	2.588220e+01	3.399369e-01	4.539920e-01	4.540244e-01	1.140552e-01	3.232803e-05
1.322677448005460e-06	7.882118e-01	-1.388661e+01	2.509840e+01	2.588661e+01	3.278730e-01	4.419566e-01	4.419791e-01	1.140836e-01	2.246061e-05
1.522677448004273e-06	7.862072e-01	-1.389103e+01	2.510482e+01	2.589103e+01	3.150245e-01	4.291373e-01	4.291545e-01	1.141128e-01	1.724089e-05
1.722677448003085e-06	7.841549e-01	-1.389515e+01	2.511099e+01	2.589515e+01	3.021768e-01	4.163176e-01	4.163319e-01	1.141409e-01	1.426277e-05
1.922677448001897e-06	7.820549e-01	-1.389896e+01	2.511691e+01	2.589896e+01	2.893315e-01	4.034992e-01	4.035116e-01	1.141678e-01	1.227819e-05
2.122677448000709e-06	7.799034e-01	-1.390247e+01	2.512257e+01	2.590247e+01	2.764894e-01	3.906829e-01	3.906937e-01	1.141935e-01	1.080069e-05
2.322677447999522e-06	7.776985e-01	-1.390567e+01	2.512797e+01	2.590567e+01	2.636509e-01	3.778690e-01	3.778786e-01	1.142180e-01	9.610143e-06
2.522677447998334e-06	7.754345e-01	-1.390855e+01	2.513311e+01	2.590855e+01	2.508165e-01	3.650579e-01	3.650666e-01	1.142414e-01	8.602874e-06
2.722677447997146e-06	7.731094e-01	-1.391111e+01	2.513800e+01	2.591111e+01	2.379865e-01	3.522502e-01	3.522579e-01	1.142636e-01	7.717637e-06
2.922677447995958e-06	7.707176e-01	-1.391335e+01	2.514263e+01	2.591335e+01	2.251613e-01	3.394460e-01	3.394529e-01	1.142847e-01	6.916933e-06
3.122677447994771e-06	7.682514e-01	-1.391526e+01	2.514701e+01	2.591526e+01	2.123411e-01	3.266457e-01	3.266518e-01	1.143046e-01	6.175891e-06
3.322677447993583e-06	7.657089e-01	-1.391684e+01	2.515113e+01	2.591684e+01	1.995263e-01	3.138496e-01	3.138551e-01	1.143233e-01	5.477938e-06
3.522677447992395e-06	7.630844e-01	-1.391807e+01	2.515499e+01	2.591807e+01	1.867171e-01	3.010580e-01	3.010628e-01	1.143409e-01	4.810820e-06
3.722677447991207e-06	7.603664e-01	-1.391896e+01	2.515859e+01	2.591896e+01	1.739140e-01	2.882712e-01	2.882754e-01	1.143572e-01	4.165908e-06
3.922677447990019e-06	7.575493e-01	-1.391949e+01	2.516195e+01	2.591949e+01	1.611171e-01	2.754896e-01	2.754931e-01	1.143725e-01	3.536130e-06
4.122677447988832e-06	7.546272e-01	-1.391967e+01	2.516504e+01	2.591967e+01	1.483269e-01	2.627135e-01	2.627164e-01	1.143865e-01	2.916146e-06
4.322677447987644e-06	7.515831e-01	-1.391946e+01	2.516788e+01	2.591946e+01	1.355438e-01	2.499432e-01	2.499455e-01	1.143994e-01	2.300992e-06
4.522677447986456e-06	7.484074e-01	-1.391887e+01	2.517046e+01	2.591887e+01	1.227679e-01	2.371791e-01	2.371808e-01	1.144112e-01	1.686654e-06
4.722677447985268e-06	7.450886e-01	-1.391788e+01	2.517279e+01	2.591788e+01	1.099998e-01	2.244215e-01	2.244226e-01	1.144218e-01	1.068853e-06
4.922677447984081e-06	7.416077e-01	-1.391647e+01	2.517486e+01	2.591647e+01	9.723969e-02	2.116709e-01	2.116713e-01	1.144312e-01	4.436297e-07
