time	V(VSW,VO)	V(Vd,VSW)	V(vo)	V(vsw)	I(C1)	I(D1)	I(L1)	I(Ro)	Id(M1)
0.000000000000000e+00	-3.059212e+01	1.196509e+01	3.062703e+01	3.491282e-02	-7.383686e-02	-1.329684e-03	4.539991e-01	7.250718e-02	4.553288e-01
1.574018693162316e-12	-3.059213e+01	1.196510e+01	3.062703e+01	3.489713e-02	-7.329101e-02	-7.838414e-04	4.539992e-01	7.250718e-02	4.547831e-01
4.722056079486947e-12	-3.059215e+01	1.196512e+01	3.062703e+01	3.488088e-02	-7.274075e-02	-2.335791e-04	4.539994e-01	7.250718e-02	4.542329e-01
1.101813085213621e-11	-3.059216e+01	1.196513e+01	3.062703e+01	3.487360e-02	-7.251274e-02	-5.565069e-06	4.539997e-01	7.250718e-02	4.540053e-01
2.338916560429283e-11	-3.059216e+01	1.196513e+01	3.062703e+01	3.487319e-02	-7.250692e-02	2.629974e-07	4.540004e-01	7.250718e-02	4.540001e-01
4.165780220777293e-11	-3.059216e+01	1.196513e+01	3.062703e+01	3.487330e-02	-7.250702e-02	1.556809e-07	4.540013e-01	7.250718e-02	4.540012e-01
7.819506847583924e-11	-3.059216e+01	1.196513e+01	3.062703e+01	3.487347e-02	-7.250705e-02	1.283884e-07	4.540033e-01	7.250717e-02	4.540032e-01
1.512696079508657e-10	-3.059216e+01	1.196513e+01	3.062703e+01	3.487389e-02	-7.250699e-02	1.789579e-07	4.540072e-01	7.250717e-02	4.540070e-01
2.974186869009188e-10	-3.059215e+01	1.196513e+01	3.062703e+01	3.487488e-02	-7.250697e-02	2.012900e-07	4.540150e-01	7.250717e-02	4.540148e-01
4.557293431517451e-10	-3.059215e+01	1.196512e+01	3.062703e+01	3.487612e-02	-7.250694e-02	2.313111e-07	4.540234e-01	7.250717e-02	4.540232e-01
6.476878963712629e-10	-3.059215e+01	1.196512e+01	3.062703e+01	3.487780e-02	-7.250690e-02	2.581592e-07	4.540337e-01	7.250717e-02	4.540334e-01
7.539098442754799e-10	-3.059215e+01	1.196512e+01	3.062703e+01	3.487878e-02	-7.250690e-02	2.655370e-07	4.540393e-01	7.250717e-02	4.540391e-01
9.663537400839139e-10	-3.059214e+01	1.196512e+01	3.062703e+01	3.488083e-02	-7.250686e-02	3.037215e-07	4.540507e-01	7.250716e-02	4.540504e-01
1.000000089679265e-09	-3.059214e+01	1.196512e+01	3.062702e+01	3.488116e-02	-7.250766e-02	-5.062165e-07	4.540525e-01	7.250716e-02	4.540530e-01
1.037078131704838e-09	-3.059214e+01	1.196512e+01	3.062702e+01	3.488149e-02	-7.250717e-02	-1.055933e-08	4.540544e-01	7.250716e-02	4.540544e-01
1.111234215755985e-09	-3.059214e+01	1.196512e+01	3.062702e+01	3.488212e-02	-7.250693e-02	2.330110e-07	4.540584e-01	7.250716e-02	4.540582e-01
1.259546383858279e-09	-3.059214e+01	1.196512e+01	3.062702e+01	3.488320e-02	-7.250696e-02	1.987351e-07	4.540663e-01	7.250716e-02	4.540661e-01
1.556170720062866e-09	-3.059214e+01	1.196512e+01	3.062702e+01	3.488487e-02	-7.250700e-02	1.484408e-07	4.540821e-01	7.250715e-02	4.540820e-01
1.895393383910537e-09	-3.059213e+01	1.196511e+01	3.062702e+01	3.488627e-02	-7.250703e-02	1.123818e-07	4.541003e-01	7.250714e-02	4.541001e-01
2.330844225961748e-09	-3.059213e+01	1.196511e+01	3.062701e+01	3.488749e-02	-7.250707e-02	7.328271e-08	4.541235e-01	7.250714e-02	4.541234e-01
2.585698946622195e-09	-3.059212e+01	1.196511e+01	3.062701e+01	3.488784e-02	-7.250711e-02	2.669857e-08	4.541371e-01	7.250714e-02	4.541371e-01
2.752454660026604e-09	-3.059212e+01	1.196511e+01	3.062701e+01	3.488768e-02	-7.250717e-02	-4.053729e-08	4.541460e-01	7.250713e-02	4.541460e-01
2.880141514172152e-09	-3.059212e+01	1.196511e+01	3.062701e+01	3.488711e-02	-7.250726e-02	-1.299215e-07	4.541528e-01	7.250713e-02	4.541529e-01
3.012075623642918e-09	-3.059212e+01	1.196511e+01	3.062701e+01	3.488586e-02	-7.250739e-02	-2.599105e-07	4.541598e-01	7.250713e-02	4.541601e-01
3.166260212350558e-09	-3.059213e+01	1.196512e+01	3.062701e+01	3.488341e-02	-7.250757e-02	-4.444763e-07	4.541681e-01	7.250712e-02	4.541685e-01
3.316524700702761e-09	-3.059213e+01	1.196512e+01	3.062701e+01	3.487969e-02	-7.250777e-02	-6.446765e-07	4.541761e-01	7.250712e-02	4.541767e-01
3.555107694341864e-09	-3.059214e+01	1.196513e+01	3.062701e+01	3.487050e-02	-7.250809e-02	-9.722847e-07	4.541888e-01	7.250711e-02	4.541897e-01
3.995340405738013e-09	-3.059216e+01	1.196515e+01	3.062700e+01	3.484552e-02	-7.250863e-02	-1.519725e-06	4.542123e-01	7.250711e-02	4.542138e-01
4.563833533310913e-09	-3.059220e+01	1.196520e+01	3.062700e+01	3.480232e-02	-7.250912e-02	-2.026152e-06	4.542426e-01	7.250710e-02	4.542446e-01
5.192555802002730e-09	-3.059225e+01	1.196525e+01	3.062700e+01	3.474547e-02	-7.250939e-02	-2.297016e-06	4.542761e-01	7.250709e-02	4.542784e-01
5.787938663071035e-09	-3.059230e+01	1.196531e+01	3.062699e+01	3.468795e-02	-7.250942e-02	-2.348679e-06	4.543079e-01	7.250708e-02	4.543103e-01
6.463667705236542e-09	-3.059236e+01	1.196538e+01	3.062699e+01	3.462186e-02	-7.250942e-02	-2.353785e-06	4.543440e-01	7.250707e-02	4.543463e-01
7.086925851718107e-09	-3.059242e+01	1.196544e+01	3.062698e+01	3.455782e-02	-7.250974e-02	-2.679394e-06	4.543772e-01	7.250705e-02	4.543799e-01
7.522663991732514e-09	-3.059248e+01	1.196550e+01	3.062698e+01	3.449724e-02	-7.251139e-02	-4.345227e-06	4.544005e-01	7.250705e-02	4.544048e-01
7.887839922893214e-09	-3.059256e+01	1.196559e+01	3.062697e+01	3.440989e-02	-7.251433e-02	-7.289115e-06	4.544200e-01	7.250704e-02	4.544272e-01
8.286757523234822e-09	-3.059271e+01	1.196574e+01	3.062697e+01	3.426487e-02	-7.251722e-02	-1.018922e-05	4.544412e-01	7.250704e-02	4.544514e-01
8.675196561114262e-09	-3.059288e+01	1.196591e+01	3.062697e+01	3.409182e-02	-7.251845e-02	-1.142343e-05	4.544620e-01	7.250703e-02	4.544734e-01
9.089489029501241e-09	-3.059307e+01	1.196610e+01	3.062697e+01	3.389598e-02	-7.251861e-02	-1.158772e-05	4.544841e-01	7.250702e-02	4.544957e-01
9.918073966275198e-09	-3.059344e+01	1.196648e+01	3.062696e+01	3.351578e-02	-7.251789e-02	-1.088281e-05	4.545283e-01	7.250701e-02	4.545392e-01
1.094405586987701e-08	-3.059385e+01	1.196689e+01	3.062695e+01	3.310800e-02	-7.251637e-02	-9.380492e-06	4.545830e-01	7.250699e-02	4.545924e-01
1.299601967708064e-08	-3.059445e+01	1.196751e+01	3.062694e+01	3.249122e-02	-7.251302e-02	-6.066459e-06	4.546925e-01	7.250696e-02	4.546987e-01
1.507613450052459e-08	-3.059485e+01	1.196793e+01	3.062692e+01	3.206886e-02	-7.251036e-02	-3.443758e-06	4.548035e-01	7.250692e-02	4.548070e-01
1.655480031531598e-08	-3.059503e+01	1.196812e+01	3.062691e+01	3.188401e-02	-7.250906e-02	-2.160700e-06	4.548824e-01	7.250690e-02	4.548846e-01
1.776284851151555e-08	-3.059511e+01	1.196821e+01	3.062690e+01	3.178968e-02	-7.250820e-02	-1.325402e-06	4.549469e-01	7.250687e-02	4.549482e-01
1.851132829661095e-08	-3.059515e+01	1.196825e+01	3.062690e+01	3.175248e-02	-7.250762e-02	-7.566387e-07	4.549868e-01	7.250686e-02	4.549876e-01
1.896633336495590e-08	-3.059515e+01	1.196826e+01	3.062689e+01	3.174182e-02	-7.250690e-02	-4.211249e-08	4.550111e-01	7.250685e-02	4.550112e-01
1.927925610822889e-08	-3.059515e+01	1.196826e+01	3.062689e+01	3.174416e-02	-7.250624e-02	6.048227e-07	4.550278e-01	7.250684e-02	4.550272e-01
1.960856840788061e-08	-3.059514e+01	1.196825e+01	3.062689e+01	3.175462e-02	-7.250585e-02	9.848151e-07	4.550454e-01	7.250684e-02	4.550444e-01
1.989817694642015e-08	-3.059512e+01	1.196823e+01	3.062689e+01	3.176691e-02	-7.250571e-02	1.126614e-06	4.550609e-01	7.250684e-02	4.550597e-01
2.024441259768084e-08	-3.059510e+01	1.196822e+01	3.062688e+01	3.178399e-02	-7.250552e-02	1.306844e-06	4.550793e-01	7.250683e-02	4.550780e-01
2.060281051319279e-08	-3.059508e+01	1.196820e+01	3.062688e+01	3.180422e-02	-7.250529e-02	1.538233e-06	4.550985e-01	7.250682e-02	4.550969e-01
2.082614395521043e-08	-3.059506e+01	1.196818e+01	3.062688e+01	3.181881e-02	-7.250511e-02	1.715139e-06	4.551104e-01	7.250682e-02	4.551086e-01
2.111871502674667e-08	-3.059504e+01	1.196816e+01	3.062688e+01	3.184037e-02	-7.250489e-02	1.929975e-06	4.551260e-01	7.250682e-02	4.551241e-01
2.128934310091646e-08	-3.059502e+01	1.196815e+01	3.062688e+01	3.185385e-02	-7.250480e-02	2.015756e-06	4.551351e-01	7.250682e-02	4.551331e-01
2.139698496161913e-08	-3.059501e+01	1.196814e+01	3.062688e+01	3.186272e-02	-7.250477e-02	2.046132e-06	4.551408e-01	7.250681e-02	4.551388e-01
2.155554768706880e-08	-3.059500e+01	1.196812e+01	3.062687e+01	3.187599e-02	-7.250474e-02	2.075566e-06	4.551493e-01	7.250681e-02	4.551472e-01
2.167971969307958e-08	-3.059499e+01	1.196811e+01	3.062687e+01	3.188650e-02	-7.250471e-02	2.092252e-06	4.551559e-01	7.250681e-02	4.551538e-01
2.182645127135618e-08	-3.059497e+01	1.196810e+01	3.062687e+01	3.189902e-02	-7.250470e-02	2.107127e-06	4.551637e-01	7.250680e-02	4.551617e-01
2.200211599717727e-08	-3.059496e+01	1.196809e+01	3.062687e+01	3.191411e-02	-7.250468e-02	2.121641e-06	4.551731e-01	7.250680e-02	4.551710e-01
2.216525327863872e-08	-3.059494e+01	1.196807e+01	3.062687e+01	3.192823e-02	-7.250467e-02	2.132919e-06	4.551818e-01	7.250680e-02	4.551797e-01
2.249152784156161e-08	-3.059491e+01	1.196804e+01	3.062687e+01	3.195668e-02	-7.250464e-02	2.152270e-06	4.551992e-01	7.250679e-02	4.551971e-01
2.292387589475364e-08	-3.059487e+01	1.196801e+01	3.062687e+01	3.199479e-02	-7.250461e-02	2.173661e-06	4.552223e-01	7.250679e-02	4.552202e-01
2.376282048216494e-08	-3.059479e+01	1.196793e+01	3.062686e+01	3.206963e-02	-7.250456e-02	2.208208e-06	4.552671e-01	7.250677e-02	4.552649e-01
2.455782959626118e-08	-3.059471e+01	1.196786e+01	3.062685e+01	3.214154e-02	-7.250452e-02	2.235537e-06	4.553095e-01	7.250676e-02	4.553073e-01
2.586152735711833e-08	-3.059458e+01	1.196774e+01	3.062684e+01	3.226121e-02	-7.250446e-02	2.273789e-06	4.553791e-01	7.250673e-02	4.553768e-01
2.705553237003500e-08	-3.059446e+01	1.196763e+01	3.062683e+01	3.237253e-02	-7.250441e-02	2.305274e-06	4.554428e-01	7.250671e-02	4.554405e-01
2.890056399751373e-08	-3.059427e+01	1.196745e+01	3.062682e+01	3.254748e-02	-7.250433e-02	2.350416e-06	4.555413e-01	7.250668e-02	4.555389e-01
3.069458726079333e-08	-3.059409e+01	1.196728e+01	3.062681e+01	3.272085e-02	-7.250425e-02	2.393027e-06	4.556370e-01	7.250665e-02	4.556347e-01
3.319503753124176e-08	-3.059382e+01	1.196703e+01	3.062679e+01	3.296801e-02	-7.250416e-02	2.452622e-06	4.557704e-01	7.250661e-02	4.557681e-01
3.606320090471238e-08	-3.059351e+01	1.196674e+01	3.062677e+01	3.325953e-02	-7.250404e-02	2.523356e-06	4.559234e-01	7.250656e-02	4.559213e-01
4.001147779070235e-08	-3.059306e+01	1.196632e+01	3.062674e+01	3.367651e-02	-7.250386e-02	2.627125e-06	4.561341e-01	7.250649e-02	4.561328e-01
4.562873531788192e-08	-3.059240e+01	1.196570e+01	3.062670e+01	3.430353e-02	-7.250360e-02	2.789895e-06	4.564338e-01	7.250640e-02	4.564366e-01
5.375435387089400e-08	-3.059133e+01	1.196469e+01	3.062664e+01	3.530752e-02	-7.250319e-02	3.068416e-06	4.568672e-01	7.250626e-02	4.569148e-01
7.000559096997927e-08	-3.058870e+01	1.196218e+01	3.062652e+01	3.782072e-02	-7.250212e-02	3.853333e-06	4.577340e-01	7.250597e-02	4.578583e-01
1.025080651750887e-07	-3.058113e+01	1.195484e+01	3.062629e+01	4.515629e-02	-7.249867e-02	6.741773e-06	4.594666e-01	7.250541e-02	4.595205e-01
1.339639917399826e-07	-3.056882e+01	1.194276e+01	3.062606e+01	5.723952e-02	-7.249163e-02	1.324709e-05	4.611423e-01	7.250488e-02	4.611304e-01
1.572622079434871e-07	-3.055194e+01	1.192605e+01	3.062589e+01	7.395183e-02	-7.247881e-02	2.567181e-05	4.623819e-01	7.250448e-02	4.623580e-01
1.733576741602683e-07	-3.052994e+01	1.190417e+01	3.062577e+01	9.583389e-02	-7.245651e-02	4.769606e-05	4.632370e-01	7.250420e-02	4.631906e-01
1.849740994611104e-07	-3.050036e+01	1.187467e+01	3.062569e+01	1.253282e-01	-7.241708e-02	8.692744e-05	4.638527e-01	7.250401e-02	4.637667e-01
1.938323846081835e-07	-3.045870e+01	1.183307e+01	3.062563e+01	1.669266e-01	-7.234558e-02	1.582750e-04	4.643209e-01	7.250385e-02	4.641637e-01
2.009471327321655e-07	-3.039661e+01	1.177103e+01	3.062558e+01	2.289688e-01	-7.221355e-02	2.901780e-04	4.646952e-01	7.250373e-02	4.644084e-01
2.070134321394135e-07	-3.029550e+01	1.166997e+01	3.062553e+01	3.300272e-01	-7.197431e-02	5.293188e-04	4.650120e-01	7.250363e-02	4.645266e-01
2.133509404769751e-07	-3.012465e+01	1.149916e+01	3.062549e+01	5.008385e-01	-7.172116e-02	7.823627e-04	4.653389e-01	7.250351e-02	4.646410e-01
2.196489872416385e-07	-2.991344e+01	1.128800e+01	3.062544e+01	7.119993e-01	-7.164048e-02	8.629242e-04	4.656585e-01	7.250341e-02	4.648426e-01
2.259375113319861e-07	-2.969265e+01	1.106725e+01	3.062540e+01	9.327458e-01	-7.163876e-02	8.645441e-04	4.659709e-01	7.250331e-02	4.651170e-01
2.336474817787870e-07	-2.942197e+01	1.079663e+01	3.062534e+01	1.203370e+00	-7.163155e-02	8.716231e-04	4.663430e-01	7.250317e-02	4.654836e-01
2.490674226723888e-07	-2.887954e+01	1.025431e+01	3.062523e+01	1.745690e+00	-7.162355e-02	8.793651e-04	4.670537e-01	7.250291e-02	4.661872e-01
2.741470881070796e-07	-2.797998e+01	9.354931e+00	3.062505e+01	2.645069e+00	-7.158305e-02	9.194331e-04	4.681247e-01	7.250249e-02	4.672092e-01
3.091385495507248e-07	-2.655706e+01	7.932256e+00	3.062480e+01	4.067744e+00	-7.128432e-02	1.217583e-03	4.694594e-01	7.250190e-02	4.682315e-01
3.375371408764760e-07	-2.485816e+01	6.233563e+00	3.062460e+01	5.766437e+00	-7.056032e-02	1.941094e-03	4.703400e-01	7.250142e-02	4.683898e-01
3.712844869954712e-07	-2.186860e+01	3.244238e+00	3.062436e+01	8.755762e+00	-6.953520e-02	2.965665e-03	4.710188e-01	7.250085e-02	4.680642e-01
4.041383680902788e-07	-1.827544e+01	-3.486910e-01	3.062414e+01	1.234869e+01	-6.883349e-02	3.666828e-03	4.711945e-01	7.250032e-02	4.675625e-01
4.389708949045779e-07	-1.410764e+01	-4.516254e+00	3.062390e+01	1.651625e+01	-6.807362e-02	4.426137e-03	4.706132e-01	7.249976e-02	4.662392e-01
5.045777651258021e-07	-5.975674e+00	-1.264778e+01	3.062346e+01	2.464778e+01	-6.559045e-02	6.908262e-03	4.680859e-01	7.249872e-02	4.612453e-01
5.289671716410260e-07	-2.909292e+00	-1.571401e+01	3.062330e+01	2.771401e+01	-6.332821e-02	9.170130e-03	4.666615e-01	7.249834e-02	4.575356e-01
5.445337572310138e-07	-9.389286e-01	-1.768427e+01	3.062320e+01	2.968427e+01	-5.985117e-02	1.264694e-02	4.655007e-01	7.249811e-02	4.528867e-01
5.522244207328830e-07	3.040504e-02	-1.865356e+01	3.062316e+01	3.065356e+01	-5.081964e-02	2.167837e-02	4.648711e-01	7.249800e-02	4.433078e-01
5.553888648077154e-07	3.979549e-01	-1.902110e+01	3.062314e+01	3.102110e+01	-5.853609e-03	6.664436e-02	4.645995e-01	7.249797e-02	3.980864e-01
5.566984313046253e-07	5.058613e-01	-1.912900e+01	3.062314e+01	3.112900e+01	5.909011e-02	1.315881e-01	4.644849e-01	7.249797e-02	3.329789e-01
5.576946388238802e-07	5.547905e-01	-1.917794e+01	3.062315e+01	3.117794e+01	1.326558e-01	2.051537e-01	4.643972e-01	7.249799e-02	2.592972e-01
5.587127339112818e-07	5.888100e-01	-1.921198e+01	3.062317e+01	3.121198e+01	2.009635e-01	2.734615e-01	4.643072e-01	7.249804e-02	1.908992e-01
5.607489240930241e-07	6.347084e-01	-1.925793e+01	3.062322e+01	3.125793e+01	3.005035e-01	3.730016e-01	4.641270e-01	7.249817e-02	9.116861e-02
5.626100591238359e-07	6.624966e-01	-1.928578e+01	3.062329e+01	3.128578e+01	3.489457e-01	4.214440e-01	4.639620e-01	7.249831e-02	4.254309e-02
5.649387464640165e-07	6.842937e-01	-1.930766e+01	3.062337e+01	3.130766e+01	3.684352e-01	4.409337e-01	4.637552e-01	7.249851e-02	2.282459e-02
5.675560143733605e-07	7.001591e-01	-1.932363e+01	3.062347e+01	3.132363e+01	3.732495e-01	4.457482e-01	4.635226e-01	7.249874e-02	1.777521e-02
5.724655522884592e-07	7.191429e-01	-1.934279e+01	3.062365e+01	3.134279e+01	3.751263e-01	4.476255e-01	4.630859e-01	7.249917e-02	1.546099e-02
5.797380806665808e-07	7.364674e-01	-1.936039e+01	3.062392e+01	3.136039e+01	3.766228e-01	4.491226e-01	4.624384e-01	7.249982e-02	1.331652e-02
5.942831374158852e-07	7.559490e-01	-1.938042e+01	3.062447e+01	3.138042e+01	3.786067e-01	4.511078e-01	4.611422e-01	7.250112e-02	1.003525e-02
6.141340136087137e-07	7.707329e-01	-1.939596e+01	3.062523e+01	3.139596e+01	3.800810e-01	4.525839e-01	4.593718e-01	7.250290e-02	6.790440e-03
6.345313710021117e-07	7.789555e-01	-1.940496e+01	3.062600e+01	3.140496e+01	3.805118e-01	4.530165e-01	4.575518e-01	7.250474e-02	4.540059e-03
6.587038864150352e-07	7.841549e-01	-1.941108e+01	3.062692e+01	3.141108e+01	3.800542e-01	4.525611e-01	4.553941e-01	7.250692e-02	2.836753e-03
6.828026173563706e-07	7.867260e-01	-1.941456e+01	3.062784e+01	3.141456e+01	3.789536e-01	4.514627e-01	4.532427e-01	7.250909e-02	1.781375e-03
7.094596628995364e-07	7.879295e-01	-1.941677e+01	3.062884e+01	3.141677e+01	3.772571e-01	4.497686e-01	4.508627e-01	7.251147e-02	1.094559e-03
7.391726591712833e-07	7.883873e-01	-1.941835e+01	3.062996e+01	3.141835e+01	3.750400e-01	4.475541e-01	4.482098e-01	7.251412e-02	6.557594e-04
7.723199274903281e-07	7.883930e-01	-1.941959e+01	3.063120e+01	3.141959e+01	3.723385e-01	4.448556e-01	4.452502e-01	7.251704e-02	3.945864e-04
8.142650681011721e-07	7.880745e-01	-1.942083e+01	3.063275e+01	3.142083e+01	3.687578e-01	4.412785e-01	4.415052e-01	7.252073e-02	2.265740e-04
8.618467107757155e-07	7.875328e-01	-1.942203e+01	3.063449e+01	3.142203e+01	3.645927e-01	4.371176e-01	4.372572e-01	7.252485e-02	1.395415e-04
9.376853356835024e-07	7.865295e-01	-1.942375e+01	3.063722e+01	3.142375e+01	3.578759e-01	4.304073e-01	4.304869e-01	7.253131e-02	7.962721e-05
1.042372232855360e-06	7.850628e-01	-1.942597e+01	3.064091e+01	3.142597e+01	3.485548e-01	4.210948e-01	4.211423e-01	7.254002e-02	4.745678e-05
1.184408338975040e-06	7.830067e-01	-1.942875e+01	3.064574e+01	3.142875e+01	3.358845e-01	4.084360e-01	4.084657e-01	7.255147e-02	2.968345e-05
1.360769256442129e-06	7.803841e-01	-1.943189e+01	3.065151e+01	3.143189e+01	3.201433e-01	3.927084e-01	3.927290e-01	7.256512e-02	2.061616e-05
1.560769256440941e-06	7.773151e-01	-1.943503e+01	3.065772e+01	3.143503e+01	3.022925e-01	3.748723e-01	3.748876e-01	7.257983e-02	1.520768e-05
1.760769256439754e-06	7.741318e-01	-1.943772e+01	3.066359e+01	3.143772e+01	2.844456e-01	3.570394e-01	3.570514e-01	7.259372e-02	1.204666e-05
1.960769256438566e-06	7.708225e-01	-1.943992e+01	3.066910e+01	3.143992e+01	2.666046e-01	3.392113e-01	3.392212e-01	7.260676e-02	9.865733e-06
2.160769256437378e-06	7.673759e-01	-1.944163e+01	3.067425e+01	3.144163e+01	2.487702e-01	3.213892e-01	3.213974e-01	7.261896e-02	8.156407e-06
2.360769256436190e-06	7.637730e-01	-1.944282e+01	3.067905e+01	3.144282e+01	2.309432e-01	3.035735e-01	3.035803e-01	7.263032e-02	6.721821e-06
2.560769256435003e-06	7.599983e-01	-1.944349e+01	3.068349e+01	3.144349e+01	2.131242e-01	2.857650e-01	2.857705e-01	7.264084e-02	5.455688e-06
2.760769256433815e-06	7.560291e-01	-1.944360e+01	3.068757e+01	3.144360e+01	1.953136e-01	2.679641e-01	2.679684e-01	7.265051e-02	4.292349e-06
2.960769256432627e-06	7.518368e-01	-1.944314e+01	3.069130e+01	3.144314e+01	1.775121e-01	2.501715e-01	2.501746e-01	7.265933e-02	3.191060e-06
3.160769256431439e-06	7.473907e-01	-1.944206e+01	3.069467e+01	3.144206e+01	1.597202e-01	2.323875e-01	2.323896e-01	7.266732e-02	2.120389e-06
3.360769256430252e-06	7.426510e-01	-1.944034e+01	3.069769e+01	3.144034e+01	1.419385e-01	2.146130e-01	2.146140e-01	7.267445e-02	1.057284e-06
3.560769256429064e-06	7.375679e-01	-1.943792e+01	3.070035e+01	3.143792e+01	1.241677e-01	1.968484e-01	1.968484e-01	7.268076e-02	-2.165325e-08
3.760769256427876e-06	7.320766e-01	-1.943473e+01	3.070266e+01	3.143473e+01	1.064083e-01	1.790945e-01	1.790934e-01	7.268622e-02	-1.138775e-06
3.960769256426688e-06	7.260933e-01	-1.943070e+01	3.070461e+01	3.143070e+01	8.866126e-02	1.613521e-01	1.613498e-01	7.269084e-02	-2.323417e-06
4.160769256425501e-06	7.195053e-01	-1.942571e+01	3.070620e+01	3.142571e+01	7.092731e-02	1.436219e-01	1.436183e-01	7.269461e-02	-3.611902e-06
4.360769256424313e-06	7.121544e-01	-1.941960e+01	3.070745e+01	3.141960e+01	5.320749e-02	1.259050e-01	1.259000e-01	7.269755e-02	-5.060807e-06
4.560769256423125e-06	7.038155e-01	-1.941215e+01	3.070833e+01	3.141215e+01	3.550300e-02	1.082026e-01	1.081959e-01	7.269965e-02	-6.756629e-06
4.760769256421937e-06	6.941319e-01	-1.940300e+01	3.070887e+01	3.140300e+01	1.781535e-02	9.051627e-02	9.050737e-02	7.270092e-02	-8.854084e-06
4.960769256420750e-06	6.825237e-01	-1.939157e+01	3.070905e+01	3.139157e+01	1.466810e-04	7.284802e-02	7.283629e-02	7.270134e-02	-1.164922e-05
5.160769256419562e-06	6.679115e-01	-1.937678e+01	3.070887e+01	3.137678e+01	-1.749973e-02	5.520120e-02	5.518519e-02	7.270093e-02	-1.581153e-05
5.360769256418374e-06	6.476631e-01	-1.935601e+01	3.070835e+01	3.135601e+01	-3.511747e-02	3.758221e-02	3.755827e-02	7.269968e-02	-2.368551e-05
