time	V(VSW,VO)	V(Vd,VSW)	V(vo)	V(vsw)	I(C1)	I(D1)	I(L1)	I(Ro)	Id(M1)
0.000000000000000e+00	8.335876e-01	-1.308585e+01	2.425226e+01	2.508585e+01	3.771953e-01	8.102714e-01	8.106505e-01	4.330761e-01	3.791066e-04
1.251000000014602e-07	8.328094e-01	-1.308967e+01	2.425686e+01	2.508967e+01	3.696879e-01	8.028460e-01	8.029785e-01	4.331582e-01	1.324764e-04
3.651000000017696e-07	8.312931e-01	-1.309679e+01	2.426550e+01	2.509679e+01	3.549364e-01	7.882488e-01	7.882601e-01	4.333124e-01	1.132019e-05
8.451000000023884e-07	8.282013e-01	-1.311005e+01	2.428185e+01	2.511005e+01	3.252103e-01	7.588148e-01	7.588250e-01	4.336044e-01	1.029117e-05
1.012000000015501e-06	8.271122e-01	-1.311436e+01	2.428725e+01	2.511436e+01	3.148801e-01	7.485810e-01	7.485909e-01	4.337009e-01	9.939835e-06
1.018000000012342e-06	8.270721e-01	-1.311451e+01	2.428744e+01	2.511451e+01	3.145089e-01	7.482131e-01	7.482231e-01	4.337043e-01	9.922830e-06
1.073999999982866e-06	8.267040e-01	-1.311589e+01	2.428919e+01	2.511589e+01	3.110442e-01	7.447796e-01	7.447894e-01	4.337355e-01	9.802008e-06
1.250000000016863e-06	8.255367e-01	-1.312011e+01	2.429457e+01	2.512011e+01	3.001577e-01	7.339892e-01	7.339987e-01	4.338316e-01	9.426811e-06
1.251000000016336e-06	8.255310e-01	-1.312013e+01	2.429460e+01	2.512013e+01	3.000958e-01	7.339279e-01	7.339374e-01	4.338321e-01	9.444653e-06
1.251100000015937e-06	8.255310e-01	-1.312013e+01	2.429460e+01	2.512013e+01	3.000883e-01	7.339205e-01	7.339312e-01	4.338322e-01	1.070018e-05
1.251300000015138e-06	8.255291e-01	-1.312014e+01	2.429461e+01	2.512014e+01	3.000734e-01	7.339057e-01	7.339190e-01	4.338323e-01	1.324353e-05
1.251600000015674e-06	8.255272e-01	-1.312014e+01	2.429462e+01	2.512014e+01	3.000517e-01	7.338841e-01	7.339005e-01	4.338324e-01	1.646680e-05
1.252000000015810e-06	8.255253e-01	-1.312015e+01	2.429463e+01	2.512015e+01	3.000236e-01	7.338563e-01	7.338760e-01	4.338326e-01	1.982097e-05
1.252040000015650e-06	8.255234e-01	-1.312015e+01	2.429463e+01	2.512015e+01	3.000213e-01	7.338539e-01	7.338736e-01	4.338327e-01	1.964581e-05
1.252120000015330e-06	8.255234e-01	-1.312016e+01	2.429463e+01	2.512016e+01	3.000169e-01	7.338496e-01	7.338687e-01	4.338327e-01	1.901959e-05
1.252280000014691e-06	8.255215e-01	-1.312016e+01	2.429464e+01	2.512016e+01	3.000086e-01	7.338414e-01	7.338589e-01	4.338328e-01	1.752878e-05
1.252600000015147e-06	8.255196e-01	-1.312017e+01	2.429465e+01	2.512017e+01	2.999915e-01	7.338244e-01	7.338393e-01	4.338330e-01	1.480667e-05
1.253240000016059e-06	8.255157e-01	-1.312018e+01	2.429467e+01	2.512018e+01	2.999568e-01	7.337902e-01	7.338001e-01	4.338333e-01	9.871051e-06
1.254433197810101e-06	8.255100e-01	-1.312021e+01	2.429470e+01	2.512021e+01	2.998918e-01	7.337258e-01	7.337269e-01	4.338340e-01	1.129769e-06
1.256819593396449e-06	8.254929e-01	-1.312027e+01	2.429477e+01	2.512027e+01	2.997631e-01	7.335984e-01	7.335806e-01	4.338352e-01	-1.780531e-05
1.260510277422203e-06	8.254700e-01	-1.312035e+01	2.429488e+01	2.512035e+01	2.995733e-01	7.334105e-01	7.333543e-01	4.338372e-01	-5.617564e-05
1.264061820617154e-06	8.254490e-01	-1.312044e+01	2.429499e+01	2.512044e+01	2.994071e-01	7.332462e-01	7.331366e-01	4.338391e-01	-1.095980e-04
1.267958533210378e-06	8.254261e-01	-1.312053e+01	2.429511e+01	2.512053e+01	2.992463e-01	7.330874e-01	7.328976e-01	4.338412e-01	-1.896894e-04
1.271714913068586e-06	8.254070e-01	-1.312063e+01	2.429522e+01	2.512063e+01	2.991162e-01	7.329594e-01	7.326674e-01	4.338432e-01	-2.919630e-04
1.274558065388065e-06	8.253956e-01	-1.312070e+01	2.429530e+01	2.512070e+01	2.990811e-01	7.329259e-01	7.324930e-01	4.338447e-01	-4.325820e-04
1.276338890380743e-06	8.253937e-01	-1.312075e+01	2.429536e+01	2.512075e+01	2.991702e-01	7.330158e-01	7.323839e-01	4.338457e-01	-6.316439e-04
1.278046122144688e-06	8.253937e-01	-1.312080e+01	2.429541e+01	2.512080e+01	2.993672e-01	7.332138e-01	7.322792e-01	4.338466e-01	-9.345082e-04
1.278953722627305e-06	8.253975e-01	-1.312083e+01	2.429543e+01	2.512083e+01	2.994885e-01	7.333355e-01	7.322236e-01	4.338471e-01	-1.111933e-03
1.280049358516611e-06	8.253975e-01	-1.312087e+01	2.429547e+01	2.512087e+01	2.996260e-01	7.334736e-01	7.321564e-01	4.338477e-01	-1.317213e-03
1.281775404027991e-06	8.254032e-01	-1.312092e+01	2.429552e+01	2.512092e+01	2.998292e-01	7.336777e-01	7.320506e-01	4.338486e-01	-1.627153e-03
1.283589566219989e-06	8.254089e-01	-1.312098e+01	2.429557e+01	2.512098e+01	3.000563e-01	7.339059e-01	7.319394e-01	4.338495e-01	-1.966531e-03
1.285582847976655e-06	8.254242e-01	-1.312106e+01	2.429564e+01	2.512106e+01	3.005582e-01	7.344088e-01	7.318172e-01	4.338506e-01	-2.591510e-03
1.286810667959493e-06	8.254604e-01	-1.312113e+01	2.429567e+01	2.512113e+01	3.014815e-01	7.353328e-01	7.317419e-01	4.338513e-01	-3.590526e-03
1.288293302686289e-06	8.255444e-01	-1.312126e+01	2.429572e+01	2.512126e+01	3.035259e-01	7.373779e-01	7.316510e-01	4.338521e-01	-5.725547e-03
1.289726770242750e-06	8.256435e-01	-1.312140e+01	2.429576e+01	2.512140e+01	3.059158e-01	7.397686e-01	7.315631e-01	4.338529e-01	-8.203574e-03
1.291150640037389e-06	8.257484e-01	-1.312155e+01	2.429580e+01	2.512155e+01	3.082669e-01	7.421206e-01	7.314758e-01	4.338536e-01	-1.064362e-02
1.293622983738682e-06	8.259277e-01	-1.312181e+01	2.429588e+01	2.512181e+01	3.120213e-01	7.458763e-01	7.313243e-01	4.338550e-01	-1.455202e-02
1.297749009334520e-06	8.262310e-01	-1.312224e+01	2.429601e+01	2.512224e+01	3.177511e-01	7.516085e-01	7.310712e-01	4.338573e-01	-2.053720e-02
1.301982205246383e-06	8.265495e-01	-1.312270e+01	2.429615e+01	2.512270e+01	3.230064e-01	7.568661e-01	7.308117e-01	4.338598e-01	-2.605448e-02
1.310448597071842e-06	8.271732e-01	-1.312360e+01	2.429642e+01	2.512360e+01	3.318513e-01	7.657161e-01	7.302926e-01	4.338647e-01	-3.542458e-02
1.318326129205391e-06	8.264179e-01	-1.312310e+01	2.429668e+01	2.512310e+01	3.066302e-01	7.404996e-01	7.298096e-01	4.338693e-01	-1.069154e-02
1.321821560540393e-06	8.158493e-01	-1.311261e+01	2.429676e+01	2.511261e+01	4.474788e-02	4.786186e-01	7.295953e-01	4.338707e-01	2.509764e-01
1.324387306140748e-06	7.859364e-01	-1.308263e+01	2.429670e+01	2.508263e+01	-6.757863e-01	-2.419166e-01	7.294383e-01	4.338696e-01	9.713552e-01
1.326517817749895e-06	7.354069e-01	-1.303183e+01	2.429642e+01	2.503183e+01	-1.831690e+00	-1.397826e+00	7.293083e-01	4.338647e-01	2.127139e+00
1.329204435877515e-06	6.349487e-01	-1.293057e+01	2.429562e+01	2.493057e+01	-3.826998e+00	-3.393147e+00	7.291454e-01	4.338503e-01	4.122321e+00
1.332187481011340e-06	4.591255e-01	-1.275335e+01	2.429422e+01	2.475335e+01	-6.277975e+00	-5.844150e+00	7.289659e-01	4.338254e-01	6.573173e+00
1.333098869592264e-06	-1.709728e-01	-1.212273e+01	2.429370e+01	2.412273e+01	-4.615668e+00	-4.181851e+00	7.289119e-01	4.338162e-01	4.911125e+00
1.333436319443312e-06	-1.158173e+00	-1.113538e+01	2.429355e+01	2.313538e+01	-1.368544e+00	-9.347308e-01	7.288927e-01	4.338134e-01	1.664078e+00
1.333505765590062e-06	-1.458607e+00	-1.083493e+01	2.429354e+01	2.283493e+01	-7.719699e-01	-3.381568e-01	7.288890e-01	4.338131e-01	1.067221e+00
1.333549976305012e-06	-1.603575e+00	-1.068996e+01	2.429353e+01	2.268996e+01	-6.634947e-01	-2.296816e-01	7.288868e-01	4.338131e-01	9.589935e-01
1.333606624921366e-06	-1.721416e+00	-1.057211e+01	2.429353e+01	2.257211e+01	-5.789580e-01	-1.451450e-01	7.288840e-01	4.338130e-01	8.754294e-01
1.333671776723722e-06	-1.816046e+00	-1.047748e+01	2.429352e+01	2.247748e+01	-5.369269e-01	-1.031139e-01	7.288808e-01	4.338129e-01	8.336135e-01
1.333745641710765e-06	-1.889441e+00	-1.040408e+01	2.429352e+01	2.240408e+01	-5.015324e-01	-6.771950e-02	7.288771e-01	4.338129e-01	7.978105e-01
1.333863815221673e-06	-1.970387e+00	-1.032313e+01	2.429351e+01	2.232313e+01	-4.806804e-01	-4.686764e-02	7.288714e-01	4.338128e-01	7.767314e-01
1.333988229461000e-06	-2.031412e+00	-1.026210e+01	2.429351e+01	2.226210e+01	-4.669776e-01	-3.316496e-02	7.288654e-01	4.338127e-01	7.627110e-01
1.334237057939655e-06	-2.125731e+00	-1.016777e+01	2.429350e+01	2.216777e+01	-4.607999e-01	-2.698744e-02	7.288534e-01	4.338125e-01	7.559634e-01
1.334469186601434e-06	-2.203978e+00	-1.008951e+01	2.429349e+01	2.208951e+01	-4.578544e-01	-2.404213e-02	7.288424e-01	4.338123e-01	7.529238e-01
1.334933443924990e-06	-2.353506e+00	-9.939960e+00	2.429347e+01	2.193996e+01	-4.579319e-01	-2.412000e-02	7.288205e-01	4.338119e-01	7.529808e-01
1.335506959255703e-06	-2.537975e+00	-9.755465e+00	2.429344e+01	2.175546e+01	-4.569490e-01	-2.313762e-02	7.287940e-01	4.338114e-01	7.519507e-01
1.336653989915393e-06	-2.908833e+00	-9.384554e+00	2.429339e+01	2.138455e+01	-4.564103e-01	-2.259984e-02	7.287428e-01	4.338105e-01	7.513524e-01
1.338475895491451e-06	-3.503344e+00	-8.789961e+00	2.429330e+01	2.078996e+01	-4.549895e-01	-2.118052e-02	7.286661e-01	4.338090e-01	7.498568e-01
1.342016161162349e-06	-4.673351e+00	-7.619793e+00	2.429314e+01	1.961979e+01	-4.531775e-01	-1.937133e-02	7.285334e-01	4.338061e-01	7.479130e-01
1.347766998482589e-06	-6.599184e+00	-5.693699e+00	2.429288e+01	1.769370e+01	-4.508169e-01	-1.701541e-02	7.283587e-01	4.338015e-01	7.453774e-01
1.355320442817873e-06	-9.150545e+00	-3.141998e+00	2.429254e+01	1.514200e+01	-4.485812e-01	-1.478581e-02	7.281975e-01	4.337954e-01	7.429833e-01
1.362123974613105e-06	-1.144462e+01	-8.476152e-01	2.429224e+01	1.284762e+01	-4.469769e-01	-1.318691e-02	7.281214e-01	4.337900e-01	7.413091e-01
1.368462798582298e-06	-1.353894e+01	1.246981e+00	2.429196e+01	1.075302e+01	-4.456199e-01	-1.183494e-02	7.281178e-01	4.337849e-01	7.399486e-01
1.375779223855220e-06	-1.583373e+01	3.542098e+00	2.429163e+01	8.457902e+00	-4.438970e-01	-1.011788e-02	7.281862e-01	4.337791e-01	7.381633e-01
1.382429570949417e-06	-1.766688e+01	5.375541e+00	2.429134e+01	6.624459e+00	-4.417927e-01	-8.018835e-03	7.283094e-01	4.337739e-01	7.360572e-01
1.389577070295273e-06	-1.919180e+01	6.900775e+00	2.429102e+01	5.099225e+00	-4.391994e-01	-5.431139e-03	7.284979e-01	4.337682e-01	7.337669e-01
1.396647939461496e-06	-2.026116e+01	7.970450e+00	2.429071e+01	4.029550e+00	-4.375466e-01	-3.783940e-03	7.287262e-01	4.337627e-01	7.324857e-01
1.404866161099430e-06	-2.122436e+01	8.934008e+00	2.429035e+01	3.065992e+00	-4.369493e-01	-3.192998e-03	7.290296e-01	4.337563e-01	7.322200e-01
1.412992346083025e-06	-2.210409e+01	9.814090e+00	2.429000e+01	2.185910e+00	-4.367999e-01	-3.049985e-03	7.293621e-01	4.337500e-01	7.324129e-01
1.420978862189462e-06	-2.295690e+01	1.066725e+01	2.428965e+01	1.332749e+00	-4.367420e-01	-2.998306e-03	7.297183e-01	4.337437e-01	7.327194e-01
1.426723643031466e-06	-2.355525e+01	1.126586e+01	2.428940e+01	7.341435e-01	-4.363911e-01	-2.651812e-03	7.299917e-01	4.337392e-01	7.326455e-01
1.429700641724166e-06	-2.382296e+01	1.153369e+01	2.428927e+01	4.663080e-01	-4.356739e-01	-1.936915e-03	7.301397e-01	4.337369e-01	7.320795e-01
1.431457497787572e-06	-2.392879e+01	1.163960e+01	2.428919e+01	3.604031e-01	-4.350162e-01	-1.280649e-03	7.302292e-01	4.337356e-01	7.315136e-01
1.433836437150782e-06	-2.401266e+01	1.172357e+01	2.428909e+01	2.764315e-01	-4.344860e-01	-7.523075e-04	7.303516e-01	4.337337e-01	7.312081e-01
1.435378297793416e-06	-2.404845e+01	1.175943e+01	2.428902e+01	2.405746e-01	-4.342909e-01	-5.583476e-04	7.304313e-01	4.337325e-01	7.312258e-01
1.437529808957089e-06	-2.408162e+01	1.179269e+01	2.428893e+01	2.073108e-01	-4.340791e-01	-3.482150e-04	7.305429e-01	4.337308e-01	7.311741e-01
1.440234800505549e-06	-2.411084e+01	1.182203e+01	2.428881e+01	1.779730e-01	-4.339764e-01	-2.476079e-04	7.306836e-01	4.337288e-01	7.310909e-01
1.443019154849859e-06	-2.413141e+01	1.184272e+01	2.428869e+01	1.572816e-01	-4.338812e-01	-1.545686e-04	7.308288e-01	4.337266e-01	7.310363e-01
1.447208890460391e-06	-2.415185e+01	1.186334e+01	2.428851e+01	1.366619e-01	-4.338471e-01	-1.237450e-04	7.310476e-01	4.337234e-01	7.310907e-01
1.452895486852082e-06	-2.416982e+01	1.188155e+01	2.428826e+01	1.184454e-01	-4.337832e-01	-6.422800e-05	7.313451e-01	4.337189e-01	7.312427e-01
1.460521388945910e-06	-2.418458e+01	1.189665e+01	2.428793e+01	1.033502e-01	-4.337615e-01	-4.842428e-05	7.317445e-01	4.337130e-01	7.317079e-01
1.470996789085244e-06	-2.419745e+01	1.190997e+01	2.428748e+01	9.002638e-02	-4.337460e-01	-4.109485e-05	7.322938e-01	4.337049e-01	7.323349e-01
1.475733843075630e-06	-2.420152e+01	1.191425e+01	2.428727e+01	8.574716e-02	-4.337049e-01	-3.678866e-06	7.325424e-01	4.337012e-01	7.325461e-01
1.478911528610474e-06	-2.420362e+01	1.191649e+01	2.428713e+01	8.351355e-02	-4.337221e-01	-2.329160e-05	7.327092e-01	4.336988e-01	7.327325e-01
1.481683358665886e-06	-2.420520e+01	1.191819e+01	2.428701e+01	8.180953e-02	-4.337135e-01	-1.688980e-05	7.328547e-01	4.336967e-01	7.328717e-01
1.484563208486306e-06	-2.420667e+01	1.191978e+01	2.428689e+01	8.022282e-02	-4.337042e-01	-9.734264e-06	7.330059e-01	4.336944e-01	7.330157e-01
1.487652969109007e-06	-2.420807e+01	1.192131e+01	2.428675e+01	7.868595e-02	-4.337015e-01	-9.485733e-06	7.331682e-01	4.336920e-01	7.331777e-01
1.490592622211545e-06	-2.420926e+01	1.192264e+01	2.428663e+01	7.736386e-02	-4.336937e-01	-3.922085e-06	7.333226e-01	4.336897e-01	7.333265e-01
1.493991107876305e-06	-2.421049e+01	1.192402e+01	2.428648e+01	7.598421e-02	-4.336988e-01	-1.171791e-05	7.335011e-01	4.336871e-01	7.335128e-01
1.497569254806097e-06	-2.421164e+01	1.192532e+01	2.428632e+01	7.468028e-02	-4.336858e-01	-1.464192e-06	7.336891e-01	4.336843e-01	7.336906e-01
1.501883198000084e-06	-2.421285e+01	1.192672e+01	2.428614e+01	7.328309e-02	-4.336898e-01	-8.823389e-06	7.339157e-01	4.336810e-01	7.339246e-01
1.506396483903077e-06	-2.421394e+01	1.192799e+01	2.428594e+01	7.200517e-02	-4.336727e-01	4.829098e-06	7.341529e-01	4.336775e-01	7.341480e-01
1.513309474034802e-06	-2.421533e+01	1.192969e+01	2.428564e+01	7.031429e-02	-4.336744e-01	-2.224747e-06	7.345161e-01	4.336722e-01	7.345183e-01
1.519377636552410e-06	-2.421634e+01	1.193096e+01	2.428538e+01	6.903860e-02	-4.336689e-01	-1.465824e-06	7.348351e-01	4.336675e-01	7.348365e-01
1.526250953298031e-06	-2.421727e+01	1.193219e+01	2.428508e+01	6.780596e-02	-4.336654e-01	-3.280137e-06	7.351964e-01	4.336621e-01	7.351996e-01
1.533049410791174e-06	-2.421803e+01	1.193324e+01	2.428478e+01	6.675665e-02	-4.336577e-01	-8.002933e-07	7.355537e-01	4.336569e-01	7.355545e-01
1.540584017542188e-06	-2.421869e+01	1.193424e+01	2.428446e+01	6.576370e-02	-4.336572e-01	-6.128259e-06	7.359498e-01	4.336510e-01	7.359560e-01
1.549983484174303e-06	-2.421934e+01	1.193529e+01	2.428405e+01	6.471496e-02	-4.336433e-01	4.898022e-07	7.364439e-01	4.336438e-01	7.364435e-01
1.561023901112610e-06	-2.421988e+01	1.193631e+01	2.428357e+01	6.369463e-02	-4.336395e-01	-4.329356e-06	7.370244e-01	4.336352e-01	7.370287e-01
1.575420684327838e-06	-2.422033e+01	1.193738e+01	2.428295e+01	6.261665e-02	-4.336240e-01	9.967005e-08	7.377813e-01	4.336241e-01	7.377813e-01
1.591257360775492e-06	-2.422061e+01	1.193835e+01	2.428226e+01	6.165121e-02	-4.336068e-01	5.027386e-06	7.386141e-01	4.336118e-01	7.386091e-01
1.601149562088788e-06	-2.422068e+01	1.193885e+01	2.428183e+01	6.114899e-02	-4.336115e-01	-7.328672e-06	7.391343e-01	4.336042e-01	7.391416e-01
1.607774981782564e-06	-2.422068e+01	1.193914e+01	2.428154e+01	6.085877e-02	-4.335988e-01	2.455738e-07	7.394826e-01	4.335990e-01	7.394824e-01
1.614296722629582e-06	-2.422066e+01	1.193940e+01	2.428126e+01	6.060150e-02	-4.335960e-01	-2.088514e-06	7.398256e-01	4.335940e-01	7.398277e-01
1.620245593410979e-06	-2.422062e+01	1.193961e+01	2.428100e+01	6.038605e-02	-4.335802e-01	9.204701e-06	7.401384e-01	4.335894e-01	7.401292e-01
1.624556279288675e-06	-2.422057e+01	1.193976e+01	2.428082e+01	6.024375e-02	-4.335825e-01	3.541212e-06	7.403651e-01	4.335860e-01	7.403616e-01
1.629352189114197e-06	-2.422051e+01	1.193990e+01	2.428061e+01	6.009998e-02	-4.335871e-01	-4.831115e-06	7.406173e-01	4.335823e-01	7.406222e-01
1.635134196563415e-06	-2.422042e+01	1.194006e+01	2.428036e+01	5.994212e-02	-4.335786e-01	-7.914494e-07	7.409214e-01	4.335778e-01	7.409222e-01
1.640661845799321e-06	-2.422031e+01	1.194019e+01	2.428012e+01	5.980656e-02	-4.335802e-01	-6.712715e-06	7.412120e-01	4.335735e-01	7.412187e-01
1.648296425365084e-06	-2.422015e+01	1.194036e+01	2.427979e+01	5.963944e-02	-4.335673e-01	3.670039e-07	7.416135e-01	4.335676e-01	7.416136e-01
1.655886111028015e-06	-2.421997e+01	1.194051e+01	2.427946e+01	5.949201e-02	-4.335627e-01	-9.043562e-07	7.420126e-01	4.335618e-01	7.420136e-01
1.664105548812925e-06	-2.421975e+01	1.194065e+01	2.427910e+01	5.935097e-02	-4.335548e-01	5.687505e-07	7.424448e-01	4.335554e-01	7.424434e-01
1.672309622261295e-06	-2.421952e+01	1.194077e+01	2.427875e+01	5.922642e-02	-4.335494e-01	-3.504364e-07	7.428762e-01	4.335490e-01	7.428759e-01
1.681011891440862e-06	-2.421926e+01	1.194089e+01	2.427837e+01	5.910979e-02	-4.335399e-01	2.372876e-06	7.433338e-01	4.335423e-01	7.433310e-01
1.690715787042857e-06	-2.421895e+01	1.194100e+01	2.427795e+01	5.899566e-02	-4.335352e-01	-3.610545e-07	7.438441e-01	4.335348e-01	7.438439e-01
1.701203578586066e-06	-2.421861e+01	1.194111e+01	2.427749e+01	5.888925e-02	-4.335222e-01	4.455886e-06	7.443956e-01	4.335267e-01	7.443906e-01
1.715629903056154e-06	-2.421810e+01	1.194123e+01	2.427687e+01	5.876589e-02	-4.335145e-01	1.003029e-06	7.451541e-01	4.335155e-01	7.451525e-01
1.729790157714226e-06	-2.421759e+01	1.194133e+01	2.427625e+01	5.866883e-02	-4.334995e-01	5.089232e-06	7.458987e-01	4.335046e-01	7.458927e-01
1.754370117890841e-06	-2.421664e+01	1.194146e+01	2.427519e+01	5.854464e-02	-4.334852e-01	3.137811e-07	7.471911e-01	4.334855e-01	7.471870e-01
1.781822257674454e-06	-2.421554e+01	1.194154e+01	2.427400e+01	5.846001e-02	-4.334607e-01	3.521510e-06	7.486344e-01	4.334643e-01	7.486204e-01
1.836482801395936e-06	-2.421322e+01	1.194159e+01	2.427163e+01	5.840716e-02	-4.334216e-01	3.775054e-07	7.515079e-01	4.334220e-01	7.514950e-01
1.909490091133934e-06	-2.420999e+01	1.194153e+01	2.426847e+01	5.847405e-02	-4.333637e-01	1.746536e-06	7.553453e-01	4.333655e-01	7.553394e-01
2.021312599815445e-06	-2.420488e+01	1.194126e+01	2.426362e+01	5.873989e-02	-4.332778e-01	1.116253e-06	7.612217e-01	4.332789e-01	7.612206e-01
2.132879290215467e-06	-2.419969e+01	1.194090e+01	2.425879e+01	5.910202e-02	-4.331911e-01	1.524958e-06	7.670830e-01	4.331926e-01	7.670814e-01
2.295246622442335e-06	-2.419205e+01	1.194030e+01	2.425175e+01	5.970283e-02	-4.330659e-01	1.156814e-06	7.756100e-01	4.330671e-01	7.756089e-01
2.454176847065462e-06	-2.418455e+01	1.193968e+01	2.424487e+01	6.031877e-02	-4.329428e-01	1.383373e-06	7.839531e-01	4.329442e-01	7.839517e-01
2.672944663566559e-06	-2.417422e+01	1.193882e+01	2.423540e+01	6.118356e-02	-4.327740e-01	1.083465e-06	7.954314e-01	4.327751e-01	7.954304e-01
2.912944663566869e-06	-2.416288e+01	1.193786e+01	2.422502e+01	6.213909e-02	-4.325885e-01	1.140870e-06	8.080168e-01	4.325897e-01	8.080156e-01
3.152944663567178e-06	-2.415154e+01	1.193690e+01	2.421464e+01	6.309780e-02	-4.324031e-01	1.141801e-06	8.205943e-01	4.324043e-01	8.205931e-01
3.392944663567488e-06	-2.414021e+01	1.193594e+01	2.420426e+01	6.405789e-02	-4.322178e-01	1.141801e-06	8.331639e-01	4.322190e-01	8.331628e-01
3.632944663567797e-06	-2.412887e+01	1.193498e+01	2.419389e+01	6.501852e-02	-4.320326e-01	1.141801e-06	8.457256e-01	4.320338e-01	8.457244e-01
3.872944663568106e-06	-2.411755e+01	1.193402e+01	2.418353e+01	6.597929e-02	-4.318475e-01	1.141801e-06	8.582794e-01	4.318487e-01	8.582782e-01
4.112944663568416e-06	-2.410622e+01	1.193306e+01	2.417316e+01	6.693999e-02	-4.316625e-01	1.141801e-06	8.708253e-01	4.316637e-01	8.708242e-01
4.352944663568725e-06	-2.409491e+01	1.193210e+01	2.416281e+01	6.790046e-02	-4.314775e-01	1.140870e-06	8.833633e-01	4.314787e-01	8.833622e-01
4.592944663569035e-06	-2.408359e+01	1.193114e+01	2.415245e+01	6.886064e-02	-4.312927e-01	1.139939e-06	8.958934e-01	4.312938e-01	8.958923e-01
4.832944663569344e-06	-2.407228e+01	1.193018e+01	2.414211e+01	6.982043e-02	-4.311079e-01	1.139939e-06	9.084156e-01	4.311090e-01	9.084145e-01
5.072944663569653e-06	-2.406098e+01	1.192922e+01	2.413176e+01	7.077980e-02	-4.309232e-01	1.140870e-06	9.209299e-01	4.309243e-01	9.209288e-01
