time	V(Vd,VSW)	I(L1)
0.000000000000000e+00	-1.308585e+01	8.106505e-01
1.251000000014602e-07	-1.308967e+01	8.029785e-01
3.651000000017696e-07	-1.309679e+01	7.882601e-01
8.451000000023884e-07	-1.311005e+01	7.588250e-01
1.012000000015501e-06	-1.311436e+01	7.485909e-01
1.018000000012342e-06	-1.311451e+01	7.482231e-01
1.073999999982866e-06	-1.311589e+01	7.447894e-01
1.250000000016863e-06	-1.312011e+01	7.339987e-01
1.251000000016336e-06	-1.312013e+01	7.339374e-01
1.251100000015937e-06	-1.312013e+01	7.339312e-01
1.251300000015138e-06	-1.312014e+01	7.339190e-01
1.251600000015674e-06	-1.312014e+01	7.339005e-01
1.252000000015810e-06	-1.312015e+01	7.338760e-01
1.252040000015650e-06	-1.312015e+01	7.338736e-01
1.252120000015330e-06	-1.312016e+01	7.338687e-01
1.252280000014691e-06	-1.312016e+01	7.338589e-01
1.252600000015147e-06	-1.312017e+01	7.338393e-01
1.253240000016059e-06	-1.312018e+01	7.338001e-01
1.254433197810101e-06	-1.312021e+01	7.337269e-01
1.256819593396449e-06	-1.312027e+01	7.335806e-01
1.260510277422203e-06	-1.312035e+01	7.333543e-01
1.264061820617154e-06	-1.312044e+01	7.331366e-01
1.267958533210378e-06	-1.312053e+01	7.328976e-01
1.271714913068586e-06	-1.312063e+01	7.326674e-01
1.274558065388065e-06	-1.312070e+01	7.324930e-01
1.276338890380743e-06	-1.312075e+01	7.323839e-01
1.278046122144688e-06	-1.312080e+01	7.322792e-01
1.278953722627305e-06	-1.312083e+01	7.322236e-01
1.280049358516611e-06	-1.312087e+01	7.321564e-01
1.281775404027991e-06	-1.312092e+01	7.320506e-01
1.283589566219989e-06	-1.312098e+01	7.319394e-01
1.285582847976655e-06	-1.312106e+01	7.318172e-01
1.286810667959493e-06	-1.312113e+01	7.317419e-01
1.288293302686289e-06	-1.312126e+01	7.316510e-01
1.289726770242750e-06	-1.312140e+01	7.315631e-01
1.291150640037389e-06	-1.312155e+01	7.314758e-01
1.293622983738682e-06	-1.312181e+01	7.313243e-01
1.297749009334520e-06	-1.312224e+01	7.310712e-01
1.301982205246383e-06	-1.312270e+01	7.308117e-01
1.310448597071842e-06	-1.312360e+01	7.302926e-01
1.318326129205391e-06	-1.312310e+01	7.298096e-01
1.321821560540393e-06	-1.311261e+01	7.295953e-01
1.324387306140748e-06	-1.308263e+01	7.294383e-01
1.326517817749895e-06	-1.303183e+01	7.293083e-01
1.329204435877515e-06	-1.293057e+01	7.291454e-01
1.332187481011340e-06	-1.275335e+01	7.289659e-01
1.333098869592264e-06	-1.212273e+01	7.289119e-01
1.333436319443312e-06	-1.113538e+01	7.288927e-01
1.333505765590062e-06	-1.083493e+01	7.288890e-01
1.333549976305012e-06	-1.068996e+01	7.288868e-01
1.333606624921366e-06	-1.057211e+01	7.288840e-01
1.333671776723722e-06	-1.047748e+01	7.288808e-01
1.333745641710765e-06	-1.040408e+01	7.288771e-01
1.333863815221673e-06	-1.032313e+01	7.288714e-01
1.333988229461000e-06	-1.026210e+01	7.288654e-01
1.334237057939655e-06	-1.016777e+01	7.288534e-01
1.334469186601434e-06	-1.008951e+01	7.288424e-01
1.334933443924990e-06	-9.939960e+00	7.288205e-01
1.335506959255703e-06	-9.755465e+00	7.287940e-01
1.336653989915393e-06	-9.384554e+00	7.287428e-01
1.338475895491451e-06	-8.789961e+00	7.286661e-01
1.342016161162349e-06	-7.619793e+00	7.285334e-01
1.347766998482589e-06	-5.693699e+00	7.283587e-01
1.355320442817873e-06	-3.141998e+00	7.281975e-01
1.362123974613105e-06	-8.476152e-01	7.281214e-01
1.368462798582298e-06	1.246981e+00	7.281178e-01
1.375779223855220e-06	3.542098e+00	7.281862e-01
1.382429570949417e-06	5.375541e+00	7.283094e-01
1.389577070295273e-06	6.900775e+00	7.284979e-01
1.396647939461496e-06	7.970450e+00	7.287262e-01
1.404866161099430e-06	8.934008e+00	7.290296e-01
1.412992346083025e-06	9.814090e+00	7.293621e-01
1.420978862189462e-06	1.066725e+01	7.297183e-01
1.426723643031466e-06	1.126586e+01	7.299917e-01
1.429700641724166e-06	1.153369e+01	7.301397e-01
1.431457497787572e-06	1.163960e+01	7.302292e-01
1.433836437150782e-06	1.172357e+01	7.303516e-01
1.435378297793416e-06	1.175943e+01	7.304313e-01
1.437529808957089e-06	1.179269e+01	7.305429e-01
1.440234800505549e-06	1.182203e+01	7.306836e-01
1.443019154849859e-06	1.184272e+01	7.308288e-01
1.447208890460391e-06	1.186334e+01	7.310476e-01
1.452895486852082e-06	1.188155e+01	7.313451e-01
1.460521388945910e-06	1.189665e+01	7.317445e-01
1.470996789085244e-06	1.190997e+01	7.322938e-01
1.475733843075630e-06	1.191425e+01	7.325424e-01
1.478911528610474e-06	1.191649e+01	7.327092e-01
1.481683358665886e-06	1.191819e+01	7.328547e-01
1.484563208486306e-06	1.191978e+01	7.330059e-01
1.487652969109007e-06	1.192131e+01	7.331682e-01
1.490592622211545e-06	1.192264e+01	7.333226e-01
1.493991107876305e-06	1.192402e+01	7.335011e-01
1.497569254806097e-06	1.192532e+01	7.336891e-01
1.501883198000084e-06	1.192672e+01	7.339157e-01
1.506396483903077e-06	1.192799e+01	7.341529e-01
1.513309474034802e-06	1.192969e+01	7.345161e-01
1.519377636552410e-06	1.193096e+01	7.348351e-01
1.526250953298031e-06	1.193219e+01	7.351964e-01
1.533049410791174e-06	1.193324e+01	7.355537e-01
1.540584017542188e-06	1.193424e+01	7.359498e-01
1.549983484174303e-06	1.193529e+01	7.364439e-01
1.561023901112610e-06	1.193631e+01	7.370244e-01
1.575420684327838e-06	1.193738e+01	7.377813e-01
1.591257360775492e-06	1.193835e+01	7.386141e-01
1.601149562088788e-06	1.193885e+01	7.391343e-01
1.607774981782564e-06	1.193914e+01	7.394826e-01
1.614296722629582e-06	1.193940e+01	7.398256e-01
1.620245593410979e-06	1.193961e+01	7.401384e-01
1.624556279288675e-06	1.193976e+01	7.403651e-01
1.629352189114197e-06	1.193990e+01	7.406173e-01
1.635134196563415e-06	1.194006e+01	7.409214e-01
1.640661845799321e-06	1.194019e+01	7.412120e-01
1.648296425365084e-06	1.194036e+01	7.416135e-01
1.655886111028015e-06	1.194051e+01	7.420126e-01
1.664105548812925e-06	1.194065e+01	7.424448e-01
1.672309622261295e-06	1.194077e+01	7.428762e-01
1.681011891440862e-06	1.194089e+01	7.433338e-01
1.690715787042857e-06	1.194100e+01	7.438441e-01
1.701203578586066e-06	1.194111e+01	7.443956e-01
1.715629903056154e-06	1.194123e+01	7.451541e-01
1.729790157714226e-06	1.194133e+01	7.458987e-01
1.754370117890841e-06	1.194146e+01	7.471911e-01
1.781822257674454e-06	1.194154e+01	7.486344e-01
1.836482801395936e-06	1.194159e+01	7.515079e-01
1.909490091133934e-06	1.194153e+01	7.553453e-01
2.021312599815445e-06	1.194126e+01	7.612217e-01
2.132879290215467e-06	1.194090e+01	7.670830e-01
2.295246622442335e-06	1.194030e+01	7.756100e-01
2.454176847065462e-06	1.193968e+01	7.839531e-01
2.672944663566559e-06	1.193882e+01	7.954314e-01
2.912944663566869e-06	1.193786e+01	8.080168e-01
3.152944663567178e-06	1.193690e+01	8.205943e-01
3.392944663567488e-06	1.193594e+01	8.331639e-01
3.632944663567797e-06	1.193498e+01	8.457256e-01
3.872944663568106e-06	1.193402e+01	8.582794e-01
4.112944663568416e-06	1.193306e+01	8.708253e-01
4.352944663568725e-06	1.193210e+01	8.833633e-01
4.592944663569035e-06	1.193114e+01	8.958934e-01
4.832944663569344e-06	1.193018e+01	9.084156e-01
5.072944663569653e-06	1.192922e+01	9.209299e-01
5.312944663569963e-06	1.192826e+01	9.334363e-01
5.552944663570272e-06	1.192730e+01	9.459348e-01
5.792944663570582e-06	1.192634e+01	9.584255e-01
6.032944663570891e-06	1.192539e+01	9.709083e-01
6.272944663571201e-06	1.192443e+01	9.833832e-01
6.512944663571510e-06	1.192347e+01	9.958503e-01
6.752944663571819e-06	1.192252e+01	1.008310e+00
6.992944663572129e-06	1.192156e+01	1.020761e+00
7.232944663572438e-06	1.192061e+01	1.033205e+00
7.712944663573057e-06	1.191870e+01	1.058068e+00
8.192944663573676e-06	1.191680e+01	1.082900e+00
8.672944663574295e-06	1.191489e+01	1.107701e+00
9.152944663574913e-06	1.191299e+01	1.132471e+00
9.392944663575223e-06	1.191204e+01	1.144844e+00
9.632944663575532e-06	1.191109e+01	1.157210e+00
9.760000000016630e-06	1.191059e+01	1.163754e+00
9.761000000016104e-06	1.191059e+01	1.163806e+00
9.763000000016786e-06	1.191058e+01	1.163909e+00
9.766468301792772e-06	1.191056e+01	1.164087e+00
9.769783071541388e-06	1.191055e+01	1.164258e+00
9.776412611036886e-06	1.191053e+01	1.164599e+00
9.789671690027882e-06	1.191047e+01	1.165282e+00
9.816189848011608e-06	1.191037e+01	1.166647e+00
9.869226163977327e-06	1.191016e+01	1.169377e+00
9.893927368083769e-06	1.191006e+01	1.170649e+00
9.943329776296653e-06	1.190987e+01	1.173192e+00
9.944329776296126e-06	1.190986e+01	1.173243e+00
9.946329776296808e-06	1.190985e+01	1.173346e+00
9.950329776296438e-06	1.190984e+01	1.173552e+00
9.955689421071306e-06	1.190982e+01	1.173828e+00
9.966408710621044e-06	1.190977e+01	1.174379e+00
9.978561420917464e-06	1.190973e+01	1.175005e+00
9.979561420916938e-06	1.190972e+01	1.175056e+00
9.981561420917620e-06	1.190971e+01	1.175159e+00
9.985561420917249e-06	1.190970e+01	1.175365e+00
9.991041387800298e-06	1.190968e+01	1.175647e+00
9.992041387799772e-06	1.190968e+01	1.175698e+00
9.994041387800454e-06	1.190967e+01	1.175801e+00
9.996000000017310e-06	1.190961e+01	1.175902e+00
9.996082775583226e-06	1.190963e+01	1.175906e+00
9.996248326715057e-06	1.190967e+01	1.175915e+00
9.996579428978719e-06	1.190966e+01	1.175932e+00
9.996914656794711e-06	1.190966e+01	1.175949e+00
9.997585112426696e-06	1.190965e+01	1.175984e+00
9.998568690633425e-06	1.190964e+01	1.176034e+00
9.999000000017466e-06	1.190966e+01	1.176056e+00
9.999137381248857e-06	1.190966e+01	1.176063e+00
9.999412143711639e-06	1.190971e+01	1.176077e+00
9.999450475091376e-06	1.190968e+01	1.176080e+00
9.999527137850850e-06	1.190963e+01	1.176083e+00
9.999680463369798e-06	1.190964e+01	1.176091e+00
9.999806207543552e-06	1.190964e+01	1.176098e+00
1.000000000001694e-05	1.190917e+01	1.176108e+00
1.000000238207850e-05	1.190938e+01	1.176108e+00
1.000000714619989e-05	1.190958e+01	1.176108e+00
1.000001667444267e-05	1.190964e+01	1.176109e+00
1.000003286294286e-05	1.190964e+01	1.176109e+00
1.000006523994498e-05	1.190964e+01	1.176111e+00
1.000012999394922e-05	1.190964e+01	1.176114e+00
1.000025950195597e-05	1.190964e+01	1.176121e+00
1.000042220934867e-05	1.190964e+01	1.176129e+00
1.000059467724974e-05	1.190964e+01	1.176138e+00
1.000075936353172e-05	1.190964e+01	1.176147e+00
1.000100000001641e-05	1.190963e+01	1.176159e+00
1.000102406366506e-05	1.190963e+01	1.176160e+00
1.000107219096234e-05	1.190963e+01	1.176163e+00
1.000116844555692e-05	1.190963e+01	1.176168e+00
1.000136095474433e-05	1.190963e+01	1.176178e+00
1.000172201535802e-05	1.190963e+01	1.176196e+00
1.000207508724572e-05	1.190963e+01	1.176215e+00
1.000256725352394e-05	1.190963e+01	1.176240e+00
1.000283928903091e-05	1.190963e+01	1.176254e+00
1.000299329713926e-05	1.190963e+01	1.176262e+00
1.000313719463387e-05	1.190963e+01	1.176269e+00
1.000328076482780e-05	1.190964e+01	1.176277e+00
1.000348642045401e-05	1.190964e+01	1.176287e+00
1.000387693244655e-05	1.190966e+01	1.176307e+00
1.000444256329253e-05	1.190970e+01	1.176336e+00
1.000505661242351e-05	1.190976e+01	1.176368e+00
1.000569624056910e-05	1.190981e+01	1.176401e+00
1.000637878325987e-05	1.190988e+01	1.176436e+00
1.000699821410156e-05	1.190993e+01	1.176468e+00
1.000747258931949e-05	1.190999e+01	1.176492e+00
1.000782855147681e-05	1.191007e+01	1.176511e+00
1.000823490281827e-05	1.191020e+01	1.176532e+00
1.000859649112791e-05	1.191035e+01	1.176550e+00
1.000899431195801e-05	1.191053e+01	1.176571e+00
1.000978995361820e-05	1.191087e+01	1.176612e+00
1.001094023807790e-05	1.191127e+01	1.176671e+00
1.001302835680964e-05	1.191177e+01	1.176778e+00
1.001505061190393e-05	1.191201e+01	1.176882e+00
1.001651750481662e-05	1.191206e+01	1.176958e+00
1.001773564210384e-05	1.191203e+01	1.177020e+00
1.001848988961725e-05	1.191199e+01	1.177059e+00
1.001894961135882e-05	1.191195e+01	1.177083e+00
1.001926281068294e-05	1.191191e+01	1.177099e+00
1.001959410628847e-05	1.191186e+01	1.177116e+00
1.001986970013830e-05	1.191182e+01	1.177130e+00
1.002021757287239e-05	1.191176e+01	1.177148e+00
1.002057207392416e-05	1.191170e+01	1.177166e+00
1.002080090215483e-05	1.191166e+01	1.177178e+00
1.002110681238427e-05	1.191160e+01	1.177194e+00
1.002127460361137e-05	1.191157e+01	1.177203e+00
1.002138576042082e-05	1.191154e+01	1.177208e+00
1.002154924358706e-05	1.191151e+01	1.177217e+00
1.002167372073613e-05	1.191149e+01	1.177223e+00
1.002183264086839e-05	1.191145e+01	1.177231e+00
1.002202171069416e-05	1.191141e+01	1.177241e+00
1.002219987546876e-05	1.191138e+01	1.177250e+00
1.002255620501796e-05	1.191130e+01	1.177269e+00
1.002304134010111e-05	1.191120e+01	1.177294e+00
1.002386586994135e-05	1.191103e+01	1.177336e+00
1.002472172837929e-05	1.191084e+01	1.177380e+00
1.002600715450594e-05	1.191056e+01	1.177446e+00
1.002728253040285e-05	1.191028e+01	1.177512e+00
1.002909545678478e-05	1.190987e+01	1.177605e+00
1.003099954941834e-05	1.190943e+01	1.177703e+00
1.003348140199943e-05	1.190884e+01	1.177831e+00
1.003653658507297e-05	1.190809e+01	1.177988e+00
1.004052576018648e-05	1.190707e+01	1.178193e+00
1.004658645699548e-05	1.190541e+01	1.178505e+00
1.005504514375866e-05	1.190279e+01	1.178940e+00
1.007196251728674e-05	1.189598e+01	1.179809e+00
1.010579726434119e-05	1.187533e+01	1.181546e+00
1.013718955446795e-05	1.184143e+01	1.183154e+00
1.016021641138919e-05	1.179352e+01	1.184330e+00
1.017625481705177e-05	1.172851e+01	1.185144e+00
1.018826610655992e-05	1.163448e+01	1.185750e+00
1.019810375401005e-05	1.148349e+01	1.186241e+00
1.020761292131606e-05	1.123231e+01	1.186706e+00
1.021751509373142e-05	1.088554e+01	1.187177e+00
1.022705352727443e-05	1.052679e+01	1.187616e+00
1.023714261823121e-05	1.014699e+01	1.188058e+00
1.025623665927393e-05	9.424196e+00	1.188845e+00
1.027982684904775e-05	8.488372e+00	1.189730e+00
1.030910540777454e-05	7.036144e+00	1.190681e+00
1.033569958300631e-05	5.049339e+00	1.191339e+00
1.036423933408609e-05	2.087660e+00	1.191710e+00
1.039514619129329e-05	-1.661757e+00	1.191627e+00
1.043041572824054e-05	-6.196455e+00	1.190965e+00
1.044918546442945e-05	-8.666344e+00	1.190348e+00
1.046039461957519e-05	-1.015697e+01	1.189858e+00
1.046697468251243e-05	-1.103516e+01	1.189531e+00
1.047089498537254e-05	-1.155909e+01	1.189322e+00
1.047328575937492e-05	-1.187860e+01	1.189189e+00
1.047477982606300e-05	-1.207773e+01	1.189103e+00
1.047572643844523e-05	-1.220153e+01	1.189049e+00
1.047633234395155e-05	-1.227602e+01	1.189013e+00
1.047681233916180e-05	-1.232808e+01	1.188985e+00
1.047734260606684e-05	-1.237630e+01	1.188954e+00
1.047789191808111e-05	-1.241682e+01	1.188922e+00
1.047860090778313e-05	-1.245817e+01	1.188880e+00
1.047954450456023e-05	-1.250009e+01	1.188824e+00
1.048122860098852e-05	-1.255407e+01	1.188723e+00
1.048360996954746e-05	-1.260633e+01	1.188580e+00
1.048653102435348e-05	-1.264742e+01	1.188405e+00
1.048928842006976e-05	-1.267094e+01	1.188239e+00
1.049274559630255e-05	-1.268870e+01	1.188030e+00
1.049750134171808e-05	-1.270416e+01	1.187742e+00
1.050701283254914e-05	-1.272277e+01	1.187167e+00
1.052603581420952e-05	-1.274434e+01	1.186014e+00
1.054470284959051e-05	-1.275656e+01	1.184882e+00
1.056643183211525e-05	-1.276480e+01	1.183563e+00
1.059049846532413e-05	-1.277064e+01	1.182101e+00
1.061560969337939e-05	-1.277468e+01	1.180576e+00
1.064292201018863e-05	-1.277781e+01	1.178916e+00
1.067348678743772e-05	-1.278062e+01	1.177059e+00
1.070901169125150e-05	-1.278345e+01	1.174900e+00
1.075138573312581e-05	-1.278658e+01	1.172324e+00
1.080407018225205e-05	-1.279031e+01	1.169121e+00
1.087245172917001e-05	-1.279505e+01	1.164963e+00
1.096562974240052e-05	-1.280143e+01	1.159295e+00
1.109834710981070e-05	-1.281040e+01	1.151220e+00
1.128582949430114e-05	-1.282287e+01	1.139808e+00
1.152582949430145e-05	-1.283853e+01	1.125192e+00
1.176582949430176e-05	-1.285385e+01	1.110567e+00
1.200582949430207e-05	-1.286879e+01	1.095933e+00
1.224582949430238e-05	-1.288337e+01	1.081292e+00
1.248582949430269e-05	-1.289758e+01	1.066642e+00
1.272582949430300e-05	-1.291142e+01	1.051986e+00
1.296582949430330e-05	-1.292489e+01	1.037322e+00
1.320582949430361e-05	-1.293799e+01	1.022652e+00
1.344582949430392e-05	-1.295072e+01	1.007976e+00
1.368582949430423e-05	-1.296309e+01	9.932945e-01
1.416582949430485e-05	-1.298670e+01	9.639157e-01
1.488582949430578e-05	-1.301935e+01	9.198152e-01
1.522868663716337e-05	-1.303372e+01	8.988011e-01
1.557154378002095e-05	-1.304733e+01	8.777846e-01
1.591440092287854e-05	-1.306018e+01	8.567657e-01
1.625725806573612e-05	-1.307227e+01	8.357443e-01
1.660011520859371e-05	-1.308360e+01	8.147205e-01
1.694297235145129e-05	-1.309417e+01	7.936943e-01
1.728582949430887e-05	-1.310397e+01	7.726656e-01
1.752582949430918e-05	-1.311041e+01	7.579485e-01
1.767766666668259e-05	-1.311433e+01	7.486380e-01
1.767866666668207e-05	-1.311436e+01	7.485768e-01
1.768066666668101e-05	-1.311441e+01	7.484541e-01
1.768466666667891e-05	-1.311451e+01	7.482088e-01
1.769266666667470e-05	-1.311470e+01	7.477183e-01
1.770866666666628e-05	-1.311510e+01	7.467373e-01
1.774066666664943e-05	-1.311588e+01	7.447752e-01
1.780466666661575e-05	-1.311744e+01	7.408512e-01
1.780566666661522e-05	-1.311747e+01	7.407899e-01
1.780766666661417e-05	-1.311752e+01	7.406673e-01
1.781166666661206e-05	-1.311761e+01	7.404220e-01
1.781966666660785e-05	-1.311780e+01	7.399315e-01
1.783566666659943e-05	-1.311819e+01	7.389506e-01
1.786766666658259e-05	-1.311895e+01	7.369886e-01
1.786866666658206e-05	-1.311897e+01	7.369273e-01
1.787066666658101e-05	-1.311902e+01	7.368047e-01
1.787466666657890e-05	-1.311911e+01	7.365595e-01
1.788266666657469e-05	-1.311930e+01	7.360690e-01
1.789866666656627e-05	-1.311968e+01	7.350881e-01
1.789966666656574e-05	-1.311970e+01	7.350267e-01
1.790166666656469e-05	-1.311975e+01	7.349041e-01
1.790566666656258e-05	-1.311984e+01	7.346589e-01
1.790966666668711e-05	-1.311994e+01	7.344136e-01
1.791066666668659e-05	-1.311996e+01	7.343524e-01
1.791266666668553e-05	-1.312001e+01	7.342297e-01
1.791366666668501e-05	-1.312003e+01	7.341684e-01
1.791566666668395e-05	-1.312008e+01	7.340458e-01
1.791666666668343e-05	-1.312010e+01	7.339845e-01
1.791766666668290e-05	-1.312012e+01	7.339232e-01
1.791776666668250e-05	-1.312012e+01	7.339171e-01
1.791796666668170e-05	-1.312013e+01	7.339048e-01
1.791826666668224e-05	-1.312014e+01	7.338864e-01
1.791866666668238e-05	-1.312015e+01	7.338619e-01
1.791870666668222e-05	-1.312015e+01	7.338594e-01
1.791878666668190e-05	-1.312015e+01	7.338545e-01
1.791894666668126e-05	-1.312015e+01	7.338447e-01
1.791926666668171e-05	-1.312016e+01	7.338251e-01
1.791990666668263e-05	-1.312017e+01	7.337858e-01
1.792109994462610e-05	-1.312020e+01	7.337127e-01
1.792348650051130e-05	-1.312026e+01	7.335663e-01
1.792717714195480e-05	-1.312035e+01	7.333401e-01
1.793072866293835e-05	-1.312043e+01	7.331223e-01
1.793462535694575e-05	-1.312053e+01	7.328835e-01
1.793838177677372e-05	-1.312062e+01	7.326531e-01
1.794122480430586e-05	-1.312069e+01	7.324789e-01
1.794300562993519e-05	-1.312074e+01	7.323697e-01
1.794471291268612e-05	-1.312080e+01	7.322650e-01
1.794562051136116e-05	-1.312082e+01	7.322094e-01
1.794671613388095e-05	-1.312086e+01	7.321422e-01
1.794844223420265e-05	-1.312092e+01	7.320364e-01
1.795025639804958e-05	-1.312098e+01	7.319252e-01
1.795224961666751e-05	-1.312105e+01	7.318029e-01
1.795347742350288e-05	-1.312113e+01	7.317277e-01
1.795496004091193e-05	-1.312125e+01	7.316368e-01
1.795639349068054e-05	-1.312140e+01	7.315489e-01
1.795781735689818e-05	-1.312154e+01	7.314616e-01
1.796028969172983e-05	-1.312180e+01	7.313100e-01
1.796441566843249e-05	-1.312224e+01	7.310570e-01
1.796864885754423e-05	-1.312269e+01	7.307975e-01
1.797711523576946e-05	-1.312359e+01	7.302784e-01
1.798499272246366e-05	-1.312309e+01	7.297954e-01
1.798848814324461e-05	-1.311260e+01	7.295811e-01
1.799105388081840e-05	-1.308263e+01	7.294241e-01
1.799318437865384e-05	-1.303182e+01	7.292941e-01
1.799587096222750e-05	-1.293057e+01	7.291312e-01
1.799885398505452e-05	-1.275336e+01	7.289517e-01
1.799976537376034e-05	-1.212287e+01	7.288978e-01
1.800010285066787e-05	-1.113560e+01	7.288786e-01
1.800017228464727e-05	-1.083517e+01	7.288749e-01
1.800021650102263e-05	-1.069011e+01	7.288727e-01
1.800027315628644e-05	-1.057222e+01	7.288698e-01
1.800033837517402e-05	-1.047748e+01	7.288666e-01
1.800041231264649e-05	-1.040402e+01	7.288629e-01
1.800053065432669e-05	-1.032300e+01	7.288572e-01
1.800065524346604e-05	-1.026192e+01	7.288511e-01
1.800090442174648e-05	-1.016750e+01	7.288392e-01
1.800113693455584e-05	-1.008913e+01	7.288281e-01
1.800160196017628e-05	-9.939344e+00	7.288063e-01
