time	V(vo)	I(Ro)
0.000000000000000e+00	2.425226e+01	4.330761e-01
1.251000000014602e-07	2.425686e+01	4.331582e-01
3.651000000017696e-07	2.426550e+01	4.333124e-01
8.451000000023884e-07	2.428185e+01	4.336044e-01
1.012000000015501e-06	2.428725e+01	4.337009e-01
1.018000000012342e-06	2.428744e+01	4.337043e-01
1.073999999982866e-06	2.428919e+01	4.337355e-01
1.250000000016863e-06	2.429457e+01	4.338316e-01
1.251000000016336e-06	2.429460e+01	4.338321e-01
1.251100000015937e-06	2.429460e+01	4.338322e-01
1.251300000015138e-06	2.429461e+01	4.338323e-01
1.251600000015674e-06	2.429462e+01	4.338324e-01
1.252000000015810e-06	2.429463e+01	4.338326e-01
1.252040000015650e-06	2.429463e+01	4.338327e-01
1.252120000015330e-06	2.429463e+01	4.338327e-01
1.252280000014691e-06	2.429464e+01	4.338328e-01
1.252600000015147e-06	2.429465e+01	4.338330e-01
1.253240000016059e-06	2.429467e+01	4.338333e-01
1.254433197810101e-06	2.429470e+01	4.338340e-01
1.256819593396449e-06	2.429477e+01	4.338352e-01
1.260510277422203e-06	2.429488e+01	4.338372e-01
1.264061820617154e-06	2.429499e+01	4.338391e-01
1.267958533210378e-06	2.429511e+01	4.338412e-01
1.271714913068586e-06	2.429522e+01	4.338432e-01
1.274558065388065e-06	2.429530e+01	4.338447e-01
1.276338890380743e-06	2.429536e+01	4.338457e-01
1.278046122144688e-06	2.429541e+01	4.338466e-01
1.278953722627305e-06	2.429543e+01	4.338471e-01
1.280049358516611e-06	2.429547e+01	4.338477e-01
1.281775404027991e-06	2.429552e+01	4.338486e-01
1.283589566219989e-06	2.429557e+01	4.338495e-01
1.285582847976655e-06	2.429564e+01	4.338506e-01
1.286810667959493e-06	2.429567e+01	4.338513e-01
1.288293302686289e-06	2.429572e+01	4.338521e-01
1.289726770242750e-06	2.429576e+01	4.338529e-01
1.291150640037389e-06	2.429580e+01	4.338536e-01
1.293622983738682e-06	2.429588e+01	4.338550e-01
1.297749009334520e-06	2.429601e+01	4.338573e-01
1.301982205246383e-06	2.429615e+01	4.338598e-01
1.310448597071842e-06	2.429642e+01	4.338647e-01
1.318326129205391e-06	2.429668e+01	4.338693e-01
1.321821560540393e-06	2.429676e+01	4.338707e-01
1.324387306140748e-06	2.429670e+01	4.338696e-01
1.326517817749895e-06	2.429642e+01	4.338647e-01
1.329204435877515e-06	2.429562e+01	4.338503e-01
1.332187481011340e-06	2.429422e+01	4.338254e-01
1.333098869592264e-06	2.429370e+01	4.338162e-01
1.333436319443312e-06	2.429355e+01	4.338134e-01
1.333505765590062e-06	2.429354e+01	4.338131e-01
1.333549976305012e-06	2.429353e+01	4.338131e-01
1.333606624921366e-06	2.429353e+01	4.338130e-01
1.333671776723722e-06	2.429352e+01	4.338129e-01
1.333745641710765e-06	2.429352e+01	4.338129e-01
1.333863815221673e-06	2.429351e+01	4.338128e-01
1.333988229461000e-06	2.429351e+01	4.338127e-01
1.334237057939655e-06	2.429350e+01	4.338125e-01
1.334469186601434e-06	2.429349e+01	4.338123e-01
1.334933443924990e-06	2.429347e+01	4.338119e-01
1.335506959255703e-06	2.429344e+01	4.338114e-01
1.336653989915393e-06	2.429339e+01	4.338105e-01
1.338475895491451e-06	2.429330e+01	4.338090e-01
1.342016161162349e-06	2.429314e+01	4.338061e-01
1.347766998482589e-06	2.429288e+01	4.338015e-01
1.355320442817873e-06	2.429254e+01	4.337954e-01
1.362123974613105e-06	2.429224e+01	4.337900e-01
1.368462798582298e-06	2.429196e+01	4.337849e-01
1.375779223855220e-06	2.429163e+01	4.337791e-01
1.382429570949417e-06	2.429134e+01	4.337739e-01
1.389577070295273e-06	2.429102e+01	4.337682e-01
1.396647939461496e-06	2.429071e+01	4.337627e-01
1.404866161099430e-06	2.429035e+01	4.337563e-01
1.412992346083025e-06	2.429000e+01	4.337500e-01
1.420978862189462e-06	2.428965e+01	4.337437e-01
1.426723643031466e-06	2.428940e+01	4.337392e-01
1.429700641724166e-06	2.428927e+01	4.337369e-01
1.431457497787572e-06	2.428919e+01	4.337356e-01
1.433836437150782e-06	2.428909e+01	4.337337e-01
1.435378297793416e-06	2.428902e+01	4.337325e-01
1.437529808957089e-06	2.428893e+01	4.337308e-01
1.440234800505549e-06	2.428881e+01	4.337288e-01
1.443019154849859e-06	2.428869e+01	4.337266e-01
1.447208890460391e-06	2.428851e+01	4.337234e-01
1.452895486852082e-06	2.428826e+01	4.337189e-01
1.460521388945910e-06	2.428793e+01	4.337130e-01
1.470996789085244e-06	2.428748e+01	4.337049e-01
1.475733843075630e-06	2.428727e+01	4.337012e-01
1.478911528610474e-06	2.428713e+01	4.336988e-01
1.481683358665886e-06	2.428701e+01	4.336967e-01
1.484563208486306e-06	2.428689e+01	4.336944e-01
1.487652969109007e-06	2.428675e+01	4.336920e-01
1.490592622211545e-06	2.428663e+01	4.336897e-01
1.493991107876305e-06	2.428648e+01	4.336871e-01
1.497569254806097e-06	2.428632e+01	4.336843e-01
1.501883198000084e-06	2.428614e+01	4.336810e-01
1.506396483903077e-06	2.428594e+01	4.336775e-01
1.513309474034802e-06	2.428564e+01	4.336722e-01
1.519377636552410e-06	2.428538e+01	4.336675e-01
1.526250953298031e-06	2.428508e+01	4.336621e-01
1.533049410791174e-06	2.428478e+01	4.336569e-01
1.540584017542188e-06	2.428446e+01	4.336510e-01
1.549983484174303e-06	2.428405e+01	4.336438e-01
1.561023901112610e-06	2.428357e+01	4.336352e-01
1.575420684327838e-06	2.428295e+01	4.336241e-01
1.591257360775492e-06	2.428226e+01	4.336118e-01
1.601149562088788e-06	2.428183e+01	4.336042e-01
1.607774981782564e-06	2.428154e+01	4.335990e-01
1.614296722629582e-06	2.428126e+01	4.335940e-01
1.620245593410979e-06	2.428100e+01	4.335894e-01
1.624556279288675e-06	2.428082e+01	4.335860e-01
1.629352189114197e-06	2.428061e+01	4.335823e-01
1.635134196563415e-06	2.428036e+01	4.335778e-01
1.640661845799321e-06	2.428012e+01	4.335735e-01
1.648296425365084e-06	2.427979e+01	4.335676e-01
1.655886111028015e-06	2.427946e+01	4.335618e-01
1.664105548812925e-06	2.427910e+01	4.335554e-01
1.672309622261295e-06	2.427875e+01	4.335490e-01
1.681011891440862e-06	2.427837e+01	4.335423e-01
1.690715787042857e-06	2.427795e+01	4.335348e-01
1.701203578586066e-06	2.427749e+01	4.335267e-01
1.715629903056154e-06	2.427687e+01	4.335155e-01
1.729790157714226e-06	2.427625e+01	4.335046e-01
1.754370117890841e-06	2.427519e+01	4.334855e-01
1.781822257674454e-06	2.427400e+01	4.334643e-01
1.836482801395936e-06	2.427163e+01	4.334220e-01
1.909490091133934e-06	2.426847e+01	4.333655e-01
2.021312599815445e-06	2.426362e+01	4.332789e-01
2.132879290215467e-06	2.425879e+01	4.331926e-01
2.295246622442335e-06	2.425175e+01	4.330671e-01
2.454176847065462e-06	2.424487e+01	4.329442e-01
2.672944663566559e-06	2.423540e+01	4.327751e-01
2.912944663566869e-06	2.422502e+01	4.325897e-01
3.152944663567178e-06	2.421464e+01	4.324043e-01
3.392944663567488e-06	2.420426e+01	4.322190e-01
3.632944663567797e-06	2.419389e+01	4.320338e-01
3.872944663568106e-06	2.418353e+01	4.318487e-01
4.112944663568416e-06	2.417316e+01	4.316637e-01
4.352944663568725e-06	2.416281e+01	4.314787e-01
4.592944663569035e-06	2.415245e+01	4.312938e-01
4.832944663569344e-06	2.414211e+01	4.311090e-01
5.072944663569653e-06	2.413176e+01	4.309243e-01
5.312944663569963e-06	2.412142e+01	4.307396e-01
5.552944663570272e-06	2.411109e+01	4.305551e-01
5.792944663570582e-06	2.410075e+01	4.303706e-01
6.032944663570891e-06	2.409043e+01	4.301862e-01
6.272944663571201e-06	2.408010e+01	4.300019e-01
6.512944663571510e-06	2.406979e+01	4.298176e-01
6.752944663571819e-06	2.405947e+01	4.296335e-01
6.992944663572129e-06	2.404916e+01	4.294494e-01
7.232944663572438e-06	2.403886e+01	4.292654e-01
7.712944663573057e-06	2.401826e+01	4.288976e-01
8.192944663573676e-06	2.399769e+01	4.285301e-01
8.672944663574295e-06	2.397713e+01	4.281630e-01
9.152944663574913e-06	2.395658e+01	4.277961e-01
9.392944663575223e-06	2.394632e+01	4.276128e-01
9.632944663575532e-06	2.393606e+01	4.274296e-01
9.760000000016630e-06	2.393063e+01	4.273326e-01
9.761000000016104e-06	2.393058e+01	4.273318e-01
9.763000000016786e-06	2.393050e+01	4.273303e-01
9.766468301792772e-06	2.393035e+01	4.273277e-01
9.769783071541388e-06	2.393021e+01	4.273252e-01
9.776412611036886e-06	2.392992e+01	4.273201e-01
9.789671690027882e-06	2.392936e+01	4.273100e-01
9.816189848011608e-06	2.392822e+01	4.272897e-01
9.869226163977327e-06	2.392596e+01	4.272493e-01
9.893927368083769e-06	2.392490e+01	4.272304e-01
9.943329776296653e-06	2.392279e+01	4.271927e-01
9.944329776296126e-06	2.392275e+01	4.271920e-01
9.946329776296808e-06	2.392266e+01	4.271905e-01
9.950329776296438e-06	2.392249e+01	4.271874e-01
9.955689421071306e-06	2.392227e+01	4.271833e-01
9.966408710621044e-06	2.392181e+01	4.271751e-01
9.978561420917464e-06	2.392129e+01	4.271659e-01
9.979561420916938e-06	2.392125e+01	4.271651e-01
9.981561420917620e-06	2.392116e+01	4.271636e-01
9.985561420917249e-06	2.392099e+01	4.271605e-01
9.991041387800298e-06	2.392076e+01	4.271563e-01
9.992041387799772e-06	2.392071e+01	4.271556e-01
9.994041387800454e-06	2.392063e+01	4.271541e-01
9.996000000017310e-06	2.392054e+01	4.271526e-01
9.996082775583226e-06	2.392054e+01	4.271525e-01
9.996248326715057e-06	2.392053e+01	4.271524e-01
9.996579428978719e-06	2.392052e+01	4.271521e-01
9.996914656794711e-06	2.392050e+01	4.271519e-01
9.997585112426696e-06	2.392048e+01	4.271514e-01
9.998568690633425e-06	2.392043e+01	4.271506e-01
9.999000000017466e-06	2.392042e+01	4.271503e-01
9.999137381248857e-06	2.392041e+01	4.271502e-01
9.999412143711639e-06	2.392040e+01	4.271500e-01
9.999450475091376e-06	2.392040e+01	4.271499e-01
9.999527137850850e-06	2.392039e+01	4.271499e-01
9.999680463369798e-06	2.392039e+01	4.271497e-01
9.999806207543552e-06	2.392038e+01	4.271497e-01
1.000000000001694e-05	2.392037e+01	4.271495e-01
1.000000238207850e-05	2.392037e+01	4.271495e-01
1.000000714619989e-05	2.392037e+01	4.271495e-01
1.000001667444267e-05	2.392037e+01	4.271495e-01
1.000003286294286e-05	2.392037e+01	4.271495e-01
1.000006523994498e-05	2.392037e+01	4.271494e-01
1.000012999394922e-05	2.392037e+01	4.271494e-01
1.000025950195597e-05	2.392036e+01	4.271493e-01
1.000042220934867e-05	2.392035e+01	4.271492e-01
1.000059467724974e-05	2.392035e+01	4.271491e-01
1.000075936353172e-05	2.392034e+01	4.271489e-01
1.000100000001641e-05	2.392033e+01	4.271488e-01
1.000102406366506e-05	2.392033e+01	4.271487e-01
1.000107219096234e-05	2.392033e+01	4.271487e-01
1.000116844555692e-05	2.392032e+01	4.271486e-01
1.000136095474433e-05	2.392031e+01	4.271485e-01
1.000172201535802e-05	2.392030e+01	4.271482e-01
1.000207508724572e-05	2.392028e+01	4.271479e-01
1.000256725352394e-05	2.392026e+01	4.271475e-01
1.000283928903091e-05	2.392025e+01	4.271473e-01
1.000299329713926e-05	2.392024e+01	4.271472e-01
1.000313719463387e-05	2.392024e+01	4.271471e-01
1.000328076482780e-05	2.392023e+01	4.271470e-01
1.000348642045401e-05	2.392022e+01	4.271469e-01
1.000387693244655e-05	2.392021e+01	4.271466e-01
1.000444256329253e-05	2.392018e+01	4.271461e-01
1.000505661242351e-05	2.392016e+01	4.271457e-01
1.000569624056910e-05	2.392013e+01	4.271452e-01
1.000637878325987e-05	2.392010e+01	4.271446e-01
1.000699821410156e-05	2.392007e+01	4.271442e-01
1.000747258931949e-05	2.392005e+01	4.271438e-01
1.000782855147681e-05	2.392004e+01	4.271435e-01
1.000823490281827e-05	2.392002e+01	4.271432e-01
1.000859649112791e-05	2.392001e+01	4.271429e-01
1.000899431195801e-05	2.391999e+01	4.271426e-01
1.000978995361820e-05	2.391995e+01	4.271421e-01
1.001094023807790e-05	2.391990e+01	4.271412e-01
1.001302835680964e-05	2.391982e+01	4.271396e-01
1.001505061190393e-05	2.391973e+01	4.271380e-01
1.001651750481662e-05	2.391967e+01	4.271369e-01
1.001773564210384e-05	2.391961e+01	4.271360e-01
1.001848988961725e-05	2.391958e+01	4.271354e-01
1.001894961135882e-05	2.391956e+01	4.271351e-01
1.001926281068294e-05	2.391955e+01	4.271348e-01
1.001959410628847e-05	2.391953e+01	4.271346e-01
1.001986970013830e-05	2.391952e+01	4.271344e-01
1.002021757287239e-05	2.391951e+01	4.271341e-01
1.002057207392416e-05	2.391949e+01	4.271338e-01
1.002080090215483e-05	2.391948e+01	4.271336e-01
1.002110681238427e-05	2.391947e+01	4.271334e-01
1.002127460361137e-05	2.391946e+01	4.271333e-01
1.002138576042082e-05	2.391946e+01	4.271332e-01
1.002154924358706e-05	2.391945e+01	4.271331e-01
1.002167372073613e-05	2.391945e+01	4.271330e-01
1.002183264086839e-05	2.391944e+01	4.271328e-01
1.002202171069416e-05	2.391943e+01	4.271327e-01
1.002219987546876e-05	2.391942e+01	4.271326e-01
1.002255620501796e-05	2.391941e+01	4.271323e-01
1.002304134010111e-05	2.391939e+01	4.271319e-01
1.002386586994135e-05	2.391935e+01	4.271313e-01
1.002472172837929e-05	2.391932e+01	4.271306e-01
1.002600715450594e-05	2.391926e+01	4.271297e-01
1.002728253040285e-05	2.391921e+01	4.271287e-01
1.002909545678478e-05	2.391913e+01	4.271273e-01
1.003099954941834e-05	2.391905e+01	4.271259e-01
1.003348140199943e-05	2.391894e+01	4.271240e-01
1.003653658507297e-05	2.391881e+01	4.271216e-01
1.004052576018648e-05	2.391864e+01	4.271186e-01
1.004658645699548e-05	2.391838e+01	4.271140e-01
1.005504514375866e-05	2.391802e+01	4.271075e-01
1.007196251728674e-05	2.391730e+01	4.270946e-01
1.010579726434119e-05	2.391585e+01	4.270688e-01
1.013718955446795e-05	2.391451e+01	4.270449e-01
1.016021641138919e-05	2.391353e+01	4.270273e-01
1.017625481705177e-05	2.391285e+01	4.270151e-01
1.018826610655992e-05	2.391233e+01	4.270059e-01
1.019810375401005e-05	2.391191e+01	4.269984e-01
1.020761292131606e-05	2.391151e+01	4.269912e-01
1.021751509373142e-05	2.391109e+01	4.269837e-01
1.022705352727443e-05	2.391068e+01	4.269764e-01
1.023714261823121e-05	2.391025e+01	4.269688e-01
1.025623665927393e-05	2.390944e+01	4.269542e-01
1.027982684904775e-05	2.390843e+01	4.269363e-01
1.030910540777454e-05	2.390719e+01	4.269141e-01
1.033569958300631e-05	2.390606e+01	4.268939e-01
1.036423933408609e-05	2.390485e+01	4.268723e-01
1.039514619129329e-05	2.390355e+01	4.268490e-01
1.043041572824054e-05	2.390206e+01	4.268225e-01
1.044918546442945e-05	2.390127e+01	4.268085e-01
1.046039461957519e-05	2.390081e+01	4.268001e-01
1.046697468251243e-05	2.390053e+01	4.267952e-01
1.047089498537254e-05	2.390037e+01	4.267924e-01
1.047328575937492e-05	2.390027e+01	4.267906e-01
1.047477982606300e-05	2.390021e+01	4.267895e-01
1.047572643844523e-05	2.390017e+01	4.267888e-01
1.047633234395155e-05	2.390015e+01	4.267884e-01
1.047681233916180e-05	2.390013e+01	4.267881e-01
1.047734260606684e-05	2.390011e+01	4.267878e-01
1.047789191808111e-05	2.390010e+01	4.267875e-01
1.047860090778313e-05	2.390009e+01	4.267872e-01
1.047954450456023e-05	2.390008e+01	4.267871e-01
1.048122860098852e-05	2.390010e+01	4.267876e-01
1.048360996954746e-05	2.390019e+01	4.267891e-01
1.048653102435348e-05	2.390035e+01	4.267921e-01
1.048928842006976e-05	2.390055e+01	4.267955e-01
1.049274559630255e-05	2.390080e+01	4.268000e-01
1.049750134171808e-05	2.390115e+01	4.268063e-01
1.050701283254914e-05	2.390186e+01	4.268190e-01
1.052603581420952e-05	2.390329e+01	4.268444e-01
1.054470284959051e-05	2.390469e+01	4.268695e-01
1.056643183211525e-05	2.390632e+01	4.268987e-01
1.059049846532413e-05	2.390814e+01	4.269310e-01
1.061560969337939e-05	2.391003e+01	4.269648e-01
1.064292201018863e-05	2.391208e+01	4.270014e-01
1.067348678743772e-05	2.391437e+01	4.270423e-01
1.070901169125150e-05	2.391703e+01	4.270898e-01
1.075138573312581e-05	2.392019e+01	4.271462e-01
1.080407018225205e-05	2.392410e+01	4.272161e-01
1.087245172917001e-05	2.392916e+01	4.273064e-01
1.096562974240052e-05	2.393599e+01	4.274285e-01
1.109834710981070e-05	2.394563e+01	4.276006e-01
1.128582949430114e-05	2.395906e+01	4.278403e-01
1.152582949430145e-05	2.397594e+01	4.281419e-01
1.176582949430176e-05	2.399249e+01	4.284374e-01
1.200582949430207e-05	2.400869e+01	4.287265e-01
1.224582949430238e-05	2.402452e+01	4.290093e-01
1.248582949430269e-05	2.404000e+01	4.292856e-01
1.272582949430300e-05	2.405511e+01	4.295556e-01
1.296582949430330e-05	2.406987e+01	4.298191e-01
1.320582949430361e-05	2.408427e+01	4.300762e-01
1.344582949430392e-05	2.409831e+01	4.303270e-01
1.368582949430423e-05	2.411200e+01	4.305714e-01
1.416582949430485e-05	2.413829e+01	4.310409e-01
1.488582949430578e-05	2.417505e+01	4.316972e-01
1.522868663716337e-05	2.419141e+01	4.319895e-01
1.557154378002095e-05	2.420705e+01	4.322688e-01
1.591440092287854e-05	2.422196e+01	4.325351e-01
1.625725806573612e-05	2.423614e+01	4.327883e-01
1.660011520859371e-05	2.424960e+01	4.330285e-01
1.694297235145129e-05	2.426232e+01	4.332556e-01
1.728582949430887e-05	2.427431e+01	4.334698e-01
1.752582949430918e-05	2.428230e+01	4.336126e-01
1.767766666668259e-05	2.428721e+01	4.337002e-01
1.767866666668207e-05	2.428724e+01	4.337008e-01
1.768066666668101e-05	2.428731e+01	4.337019e-01
1.768466666667891e-05	2.428743e+01	4.337042e-01
1.769266666667470e-05	2.428769e+01	4.337087e-01
1.770866666666628e-05	2.428819e+01	4.337176e-01
1.774066666664943e-05	2.428918e+01	4.337354e-01
1.780466666661575e-05	2.429116e+01	4.337708e-01
1.780566666661522e-05	2.429119e+01	4.337713e-01
1.780766666661417e-05	2.429126e+01	4.337724e-01
1.781166666661206e-05	2.429138e+01	4.337746e-01
1.781966666660785e-05	2.429162e+01	4.337790e-01
1.783566666659943e-05	2.429211e+01	4.337877e-01
1.786766666658259e-05	2.429309e+01	4.338051e-01
1.786866666658206e-05	2.429312e+01	4.338056e-01
1.787066666658101e-05	2.429318e+01	4.338067e-01
1.787466666657890e-05	2.429330e+01	4.338089e-01
1.788266666657469e-05	2.429354e+01	4.338132e-01
1.789866666656627e-05	2.429402e+01	4.338218e-01
1.789966666656574e-05	2.429405e+01	4.338224e-01
1.790166666656469e-05	2.429411e+01	4.338234e-01
1.790566666656258e-05	2.429423e+01	4.338256e-01
1.790966666668711e-05	2.429435e+01	4.338277e-01
1.791066666668659e-05	2.429438e+01	4.338283e-01
1.791266666668553e-05	2.429444e+01	4.338293e-01
1.791366666668501e-05	2.429447e+01	4.338299e-01
1.791566666668395e-05	2.429453e+01	4.338309e-01
1.791666666668343e-05	2.429456e+01	4.338315e-01
1.791766666668290e-05	2.429459e+01	4.338320e-01
1.791776666668250e-05	2.429460e+01	4.338321e-01
1.791796666668170e-05	2.429460e+01	4.338322e-01
1.791826666668224e-05	2.429461e+01	4.338323e-01
1.791866666668238e-05	2.429462e+01	4.338326e-01
1.791870666668222e-05	2.429462e+01	4.338326e-01
1.791878666668190e-05	2.429463e+01	4.338326e-01
1.791894666668126e-05	2.429463e+01	4.338327e-01
1.791926666668171e-05	2.429464e+01	4.338329e-01
1.791990666668263e-05	2.429466e+01	4.338332e-01
1.792109994462610e-05	2.429470e+01	4.338339e-01
1.792348650051130e-05	2.429477e+01	4.338351e-01
1.792717714195480e-05	2.429488e+01	4.338371e-01
1.793072866293835e-05	2.429498e+01	4.338390e-01
1.793462535694575e-05	2.429510e+01	4.338411e-01
1.793838177677372e-05	2.429521e+01	4.338431e-01
1.794122480430586e-05	2.429530e+01	4.338446e-01
1.794300562993519e-05	2.429535e+01	4.338456e-01
1.794471291268612e-05	2.429540e+01	4.338465e-01
1.794562051136116e-05	2.429543e+01	4.338470e-01
1.794671613388095e-05	2.429546e+01	4.338475e-01
1.794844223420265e-05	2.429552e+01	4.338485e-01
1.795025639804958e-05	2.429557e+01	4.338495e-01
1.795224961666751e-05	2.429563e+01	4.338505e-01
1.795347742350288e-05	2.429567e+01	4.338512e-01
1.795496004091193e-05	2.429571e+01	4.338520e-01
1.795639349068054e-05	2.429576e+01	4.338528e-01
1.795781735689818e-05	2.429580e+01	4.338535e-01
1.796028969172983e-05	2.429588e+01	4.338549e-01
1.796441566843249e-05	2.429601e+01	4.338572e-01
1.796864885754423e-05	2.429614e+01	4.338597e-01
1.797711523576946e-05	2.429642e+01	4.338647e-01
1.798499272246366e-05	2.429668e+01	4.338692e-01
1.798848814324461e-05	2.429675e+01	4.338706e-01
1.799105388081840e-05	2.429669e+01	4.338695e-01
1.799318437865384e-05	2.429642e+01	4.338646e-01
1.799587096222750e-05	2.429561e+01	4.338503e-01
1.799885398505452e-05	2.429422e+01	4.338253e-01
1.799976537376034e-05	2.429370e+01	4.338161e-01
1.800010285066787e-05	2.429354e+01	4.338133e-01
1.800017228464727e-05	2.429353e+01	4.338130e-01
1.800021650102263e-05	2.429353e+01	4.338130e-01
1.800027315628644e-05	2.429352e+01	4.338129e-01
1.800033837517402e-05	2.429352e+01	4.338129e-01
1.800041231264649e-05	2.429352e+01	4.338128e-01
1.800053065432669e-05	2.429351e+01	4.338127e-01
1.800065524346604e-05	2.429350e+01	4.338126e-01
1.800090442174648e-05	2.429349e+01	4.338124e-01
1.800113693455584e-05	2.429348e+01	4.338122e-01
1.800160196017628e-05	2.429346e+01	4.338118e-01
1.800217695921424e-05	2.429343e+01	4.338113e-01
1.800332695729191e-05	2.429338e+01	4.338104e-01
1.800515577836739e-05	2.429330e+01	4.338089e-01
1.800871267128648e-05	2.429314e+01	4.338060e-01
