time	V(VSW,VO)	V(Vd,VSW)	V(vo)	V(vsw)	I(C1)	I(D1)	I(L1)	I(Ro)	Id(M1)
0.000000000000000e+00	-3.828882e+01	1.196318e+01	3.832564e+01	3.681940e-02	-5.634148e-02	1.975922e-05	4.793372e-01	5.636124e-02	4.793175e-01
2.280849120683826e-12	-3.828882e+01	1.196318e+01	3.832564e+01	3.681951e-02	-5.635191e-02	9.325217e-06	4.793373e-01	5.636124e-02	4.793280e-01
6.842540423157573e-12	-3.828882e+01	1.196318e+01	3.832564e+01	3.681958e-02	-5.636017e-02	1.061402e-06	4.793376e-01	5.636124e-02	4.793365e-01
1.596592996699897e-11	-3.828882e+01	1.196318e+01	3.832564e+01	3.681960e-02	-5.636144e-02	-2.131025e-07	4.793380e-01	5.636124e-02	4.793383e-01
3.019881567034588e-11	-3.828882e+01	1.196318e+01	3.832564e+01	3.681965e-02	-5.636102e-02	2.065463e-07	4.793388e-01	5.636124e-02	4.793386e-01
5.866458707703970e-11	-3.828882e+01	1.196318e+01	3.832564e+01	3.681980e-02	-5.636120e-02	3.802203e-08	4.793403e-01	5.636124e-02	4.793403e-01
1.155961298904273e-10	-3.828882e+01	1.196318e+01	3.832564e+01	3.682011e-02	-5.636113e-02	1.123245e-07	4.793434e-01	5.636124e-02	4.793433e-01
2.294592155172026e-10	-3.828882e+01	1.196318e+01	3.832564e+01	3.682083e-02	-5.636113e-02	1.114628e-07	4.793494e-01	5.636124e-02	4.793493e-01
3.935852060932277e-10	-3.828882e+01	1.196318e+01	3.832564e+01	3.682204e-02	-5.636109e-02	1.454925e-07	4.793582e-01	5.636124e-02	4.793580e-01
5.516105766600887e-10	-3.828882e+01	1.196318e+01	3.832564e+01	3.682337e-02	-5.636108e-02	1.617962e-07	4.793666e-01	5.636124e-02	4.793665e-01
7.626289669215858e-10	-3.828881e+01	1.196317e+01	3.832564e+01	3.682531e-02	-5.636105e-02	1.792748e-07	4.793778e-01	5.636124e-02	4.793777e-01
1.000000089679265e-09	-3.828881e+01	1.196317e+01	3.832564e+01	3.682757e-02	-5.636043e-02	7.982395e-07	4.793905e-01	5.636123e-02	4.793897e-01
1.023737199179475e-09	-3.828881e+01	1.196317e+01	3.832564e+01	3.682780e-02	-5.636084e-02	3.948342e-07	4.793918e-01	5.636123e-02	4.793914e-01
1.071211425118790e-09	-3.828881e+01	1.196317e+01	3.832564e+01	3.682823e-02	-5.636107e-02	1.676198e-07	4.793943e-01	5.636123e-02	4.793941e-01
1.166159876997419e-09	-3.828881e+01	1.196317e+01	3.832564e+01	3.682899e-02	-5.636109e-02	1.443512e-07	4.793994e-01	5.636123e-02	4.793992e-01
1.356056773815784e-09	-3.828880e+01	1.196317e+01	3.832563e+01	3.683023e-02	-5.636112e-02	1.097660e-07	4.794095e-01	5.636123e-02	4.794094e-01
1.718751689583353e-09	-3.828880e+01	1.196317e+01	3.832563e+01	3.683202e-02	-5.636116e-02	6.459959e-08	4.794288e-01	5.636122e-02	4.794287e-01
2.069191221143463e-09	-3.828880e+01	1.196317e+01	3.832563e+01	3.683320e-02	-5.636119e-02	3.406072e-08	4.794475e-01	5.636122e-02	4.794474e-01
2.562320022825304e-09	-3.828880e+01	1.196317e+01	3.832563e+01	3.683397e-02	-5.636125e-02	-3.684045e-08	4.794737e-01	5.636122e-02	4.794738e-01
2.834480934688077e-09	-3.828879e+01	1.196317e+01	3.832563e+01	3.683353e-02	-5.636136e-02	-1.427311e-07	4.794883e-01	5.636122e-02	4.794884e-01
2.988710473550427e-09	-3.828879e+01	1.196317e+01	3.832563e+01	3.683243e-02	-5.636147e-02	-2.588110e-07	4.794965e-01	5.636122e-02	4.794967e-01
3.131855351445889e-09	-3.828880e+01	1.196317e+01	3.832563e+01	3.683042e-02	-5.636162e-02	-4.067793e-07	4.795041e-01	5.636121e-02	4.795045e-01
3.276919707806414e-09	-3.828880e+01	1.196317e+01	3.832563e+01	3.682718e-02	-5.636179e-02	-5.774252e-07	4.795118e-01	5.636121e-02	4.795124e-01
3.479322510657745e-09	-3.828880e+01	1.196318e+01	3.832562e+01	3.682019e-02	-5.636204e-02	-8.267255e-07	4.795226e-01	5.636121e-02	4.795234e-01
3.863214741162135e-09	-3.828882e+01	1.196320e+01	3.832562e+01	3.680024e-02	-5.636248e-02	-1.271120e-06	4.795431e-01	5.636121e-02	4.795443e-01
4.429899676250404e-09	-3.828886e+01	1.196324e+01	3.832562e+01	3.675972e-02	-5.636298e-02	-1.773453e-06	4.795733e-01	5.636120e-02	4.795750e-01
5.042774475771949e-09	-3.828891e+01	1.196329e+01	3.832561e+01	3.670603e-02	-5.636327e-02	-2.065082e-06	4.796059e-01	5.636120e-02	4.796080e-01
5.685761229889952e-09	-3.828897e+01	1.196336e+01	3.832561e+01	3.664447e-02	-5.636334e-02	-2.143517e-06	4.796402e-01	5.636119e-02	4.796423e-01
6.368545572843498e-09	-3.828903e+01	1.196342e+01	3.832561e+01	3.657793e-02	-5.636333e-02	-2.143635e-06	4.796766e-01	5.636119e-02	4.796787e-01
6.987291169269216e-09	-3.828909e+01	1.196348e+01	3.832560e+01	3.651560e-02	-5.636351e-02	-2.327038e-06	4.797095e-01	5.636118e-02	4.797119e-01
7.466121255961244e-09	-3.828915e+01	1.196355e+01	3.832560e+01	3.645416e-02	-5.636482e-02	-3.641399e-06	4.797350e-01	5.636118e-02	4.797387e-01
7.822010532343437e-09	-3.828922e+01	1.196362e+01	3.832560e+01	3.637583e-02	-5.636722e-02	-6.043407e-06	4.797540e-01	5.636118e-02	4.797601e-01
8.229802755943538e-09	-3.828936e+01	1.196376e+01	3.832560e+01	3.623535e-02	-5.637004e-02	-8.868858e-06	4.797758e-01	5.636117e-02	4.797846e-01
8.589336311648488e-09	-3.828952e+01	1.196392e+01	3.832560e+01	3.607976e-02	-5.637125e-02	-1.007957e-05	4.797949e-01	5.636117e-02	4.798050e-01
8.986844594882637e-09	-3.828970e+01	1.196411e+01	3.832559e+01	3.589341e-02	-5.637151e-02	-1.034149e-05	4.798161e-01	5.636116e-02	4.798264e-01
9.781861161350935e-09	-3.829006e+01	1.196447e+01	3.832559e+01	3.552848e-02	-5.637104e-02	-9.876015e-06	4.798585e-01	5.636116e-02	4.798683e-01
1.095582963239750e-08	-3.829052e+01	1.196494e+01	3.832558e+01	3.506029e-02	-5.636952e-02	-8.375428e-06	4.799210e-01	5.636115e-02	4.799294e-01
1.302265943692316e-08	-3.829113e+01	1.196556e+01	3.832557e+01	3.443900e-02	-5.636651e-02	-5.382161e-06	4.800312e-01	5.636113e-02	4.800366e-01
1.505381073269030e-08	-3.829153e+01	1.196597e+01	3.832556e+01	3.403183e-02	-5.636419e-02	-3.075052e-06	4.801394e-01	5.636112e-02	4.801426e-01
1.651867705815269e-08	-3.829170e+01	1.196615e+01	3.832555e+01	3.385307e-02	-5.636303e-02	-1.927207e-06	4.802175e-01	5.636111e-02	4.802195e-01
1.773769937180036e-08	-3.829178e+01	1.196624e+01	3.832554e+01	3.376148e-02	-5.636226e-02	-1.166393e-06	4.802825e-01	5.636109e-02	4.802836e-01
1.849145930127305e-08	-3.829181e+01	1.196627e+01	3.832554e+01	3.372640e-02	-5.636175e-02	-6.588017e-07	4.803227e-01	5.636109e-02	4.803233e-01
1.895094212805981e-08	-3.829182e+01	1.196628e+01	3.832553e+01	3.371702e-02	-5.636111e-02	-2.520297e-08	4.803471e-01	5.636108e-02	4.803472e-01
1.926414197606086e-08	-3.829181e+01	1.196628e+01	3.832553e+01	3.372027e-02	-5.636053e-02	5.548245e-07	4.803638e-01	5.636108e-02	4.803633e-01
1.959520714439611e-08	-3.829180e+01	1.196627e+01	3.832553e+01	3.373186e-02	-5.636017e-02	9.105718e-07	4.803815e-01	5.636108e-02	4.803806e-01
1.987117362323154e-08	-3.829179e+01	1.196626e+01	3.832553e+01	3.374458e-02	-5.636004e-02	1.035688e-06	4.803962e-01	5.636108e-02	4.803951e-01
2.021900028653656e-08	-3.829177e+01	1.196624e+01	3.832553e+01	3.376301e-02	-5.635988e-02	1.194744e-06	4.804147e-01	5.636107e-02	4.804135e-01
2.057313359254964e-08	-3.829174e+01	1.196622e+01	3.832553e+01	3.378423e-02	-5.635967e-02	1.395207e-06	4.804336e-01	5.636107e-02	4.804322e-01
2.080138335885939e-08	-3.829173e+01	1.196620e+01	3.832553e+01	3.379995e-02	-5.635951e-02	1.556047e-06	4.804458e-01	5.636107e-02	4.804442e-01
2.110631971280474e-08	-3.829170e+01	1.196618e+01	3.832552e+01	3.382352e-02	-5.635931e-02	1.760363e-06	4.804620e-01	5.636106e-02	4.804603e-01
2.127456491529678e-08	-3.829169e+01	1.196616e+01	3.832552e+01	3.383747e-02	-5.635922e-02	1.838127e-06	4.804710e-01	5.636106e-02	4.804691e-01
2.138551764840901e-08	-3.829168e+01	1.196615e+01	3.832552e+01	3.384706e-02	-5.635919e-02	1.866938e-06	4.804769e-01	5.636106e-02	4.804750e-01
2.154885740679457e-08	-3.829166e+01	1.196614e+01	3.832552e+01	3.386141e-02	-5.635917e-02	1.894709e-06	4.804856e-01	5.636106e-02	4.804837e-01
2.167325289376132e-08	-3.829165e+01	1.196613e+01	3.832552e+01	3.387246e-02	-5.635915e-02	1.909915e-06	4.804922e-01	5.636106e-02	4.804903e-01
2.183145612205672e-08	-3.829163e+01	1.196611e+01	3.832552e+01	3.388663e-02	-5.635913e-02	1.924392e-06	4.805007e-01	5.636106e-02	4.804987e-01
2.201959717340607e-08	-3.829162e+01	1.196610e+01	3.832552e+01	3.390359e-02	-5.635912e-02	1.938305e-06	4.805107e-01	5.636106e-02	4.805087e-01
2.219672934344885e-08	-3.829160e+01	1.196608e+01	3.832552e+01	3.391968e-02	-5.635910e-02	1.949264e-06	4.805201e-01	5.636106e-02	4.805182e-01
2.255099367659552e-08	-3.829156e+01	1.196605e+01	3.832552e+01	3.395212e-02	-5.635909e-02	1.967928e-06	4.805390e-01	5.636105e-02	4.805370e-01
2.303295059541410e-08	-3.829152e+01	1.196600e+01	3.832551e+01	3.399673e-02	-5.635906e-02	1.989257e-06	4.805647e-01	5.636105e-02	4.805627e-01
2.385681329569733e-08	-3.829143e+01	1.196593e+01	3.832551e+01	3.407391e-02	-5.635902e-02	2.019704e-06	4.806086e-01	5.636104e-02	4.806066e-01
2.470903608109420e-08	-3.829135e+01	1.196585e+01	3.832550e+01	3.415484e-02	-5.635899e-02	2.046303e-06	4.806540e-01	5.636103e-02	4.806520e-01
2.599385388879494e-08	-3.829122e+01	1.196572e+01	3.832550e+01	3.427866e-02	-5.635894e-02	2.081017e-06	4.807225e-01	5.636102e-02	4.807204e-01
2.726452041912353e-08	-3.829109e+01	1.196560e+01	3.832549e+01	3.440305e-02	-5.635890e-02	2.112181e-06	4.807902e-01	5.636102e-02	4.807881e-01
2.907712307043120e-08	-3.829090e+01	1.196542e+01	3.832548e+01	3.458358e-02	-5.635884e-02	2.153877e-06	4.808868e-01	5.636100e-02	4.808847e-01
3.097448008498871e-08	-3.829069e+01	1.196522e+01	3.832547e+01	3.477625e-02	-5.635879e-02	2.196539e-06	4.809879e-01	5.636098e-02	4.809858e-01
3.345440347662931e-08	-3.829042e+01	1.196497e+01	3.832545e+01	3.503404e-02	-5.635871e-02	2.252818e-06	4.811201e-01	5.636096e-02	4.811180e-01
3.649684388734586e-08	-3.829008e+01	1.196464e+01	3.832544e+01	3.535961e-02	-5.635861e-02	2.324512e-06	4.812822e-01	5.636094e-02	4.812804e-01
4.047785326366515e-08	-3.828961e+01	1.196420e+01	3.832542e+01	3.580328e-02	-5.635848e-02	2.424852e-06	4.814944e-01	5.636090e-02	4.814936e-01
4.650406044276467e-08	-3.828887e+01	1.196348e+01	3.832538e+01	3.651560e-02	-5.635826e-02	2.593052e-06	4.818155e-01	5.636086e-02	4.818202e-01
5.492492840403207e-08	-3.828771e+01	1.196238e+01	3.832533e+01	3.762439e-02	-5.635791e-02	2.873009e-06	4.822641e-01	5.636078e-02	4.823244e-01
7.176666432656686e-08	-3.828480e+01	1.195956e+01	3.832524e+01	4.044197e-02	-5.635697e-02	3.674990e-06	4.831611e-01	5.636065e-02	4.833166e-01
1.054501361785753e-07	-3.827625e+01	1.195120e+01	3.832505e+01	4.880039e-02	-5.635367e-02	6.696179e-06	4.849544e-01	5.636037e-02	4.850213e-01
1.366294329965823e-07	-3.826271e+01	1.193783e+01	3.832487e+01	6.216805e-02	-5.634676e-02	1.334355e-05	4.866129e-01	5.636011e-02	4.866013e-01
1.591794696886861e-07	-3.824436e+01	1.191961e+01	3.832475e+01	8.038834e-02	-5.633407e-02	2.584630e-05	4.878109e-01	5.635992e-02	4.877871e-01
1.747376380881183e-07	-3.822040e+01	1.189574e+01	3.832466e+01	1.042563e-01	-5.631184e-02	4.795217e-05	4.886360e-01	5.635979e-02	4.885894e-01
1.860280667287384e-07	-3.818800e+01	1.186340e+01	3.832460e+01	1.366010e-01	-5.627230e-02	8.740041e-05	4.892333e-01	5.635970e-02	4.891469e-01
1.947058392778866e-07	-3.814191e+01	1.181736e+01	3.832455e+01	1.826356e-01	-5.620022e-02	1.594043e-04	4.896909e-01	5.635963e-02	4.895329e-01
2.017427860739884e-07	-3.807234e+01	1.174783e+01	3.832451e+01	2.521735e-01	-5.606676e-02	2.928154e-04	4.900601e-01	5.635957e-02	4.897723e-01
2.078382484241303e-07	-3.795766e+01	1.163319e+01	3.832447e+01	3.668123e-01	-5.584330e-02	5.162175e-04	4.903771e-01	5.635952e-02	4.899390e-01
2.149268004403293e-07	-3.775202e+01	1.142759e+01	3.832443e+01	5.724097e-01	-5.562165e-02	7.378118e-04	4.907409e-01	5.635946e-02	4.901594e-01
2.206307433416654e-07	-3.755656e+01	1.123216e+01	3.832440e+01	7.678373e-01	-5.558578e-02	7.736394e-04	4.910285e-01	5.635941e-02	4.903468e-01
2.268060812979367e-07	-3.733901e+01	1.101465e+01	3.832437e+01	9.853544e-01	-5.558827e-02	7.710931e-04	4.913328e-01	5.635936e-02	4.905975e-01
2.363120655754503e-07	-3.700419e+01	1.067988e+01	3.832431e+01	1.320123e+00	-5.557907e-02	7.802207e-04	4.917873e-01	5.635929e-02	4.910589e-01
2.519468702139038e-07	-3.645141e+01	1.012718e+01	3.832423e+01	1.872820e+00	-5.557352e-02	7.856379e-04	4.924954e-01	5.635916e-02	4.917600e-01
2.832164794977499e-07	-3.531129e+01	8.987236e+00	3.832405e+01	3.012764e+00	-5.551229e-02	8.466187e-04	4.937970e-01	5.635890e-02	4.929621e-01
3.159189657167549e-07	-3.388189e+01	7.558022e+00	3.832387e+01	4.441978e+00	-5.515575e-02	1.202886e-03	4.949970e-01	5.635864e-02	4.937551e-01
3.437047684864969e-07	-3.205821e+01	5.734490e+00	3.832372e+01	6.265510e+00	-5.446722e-02	1.891189e-03	4.958039e-01	5.635841e-02	4.938837e-01
3.749682081222172e-07	-2.913112e+01	2.807573e+00	3.832355e+01	9.192427e+00	-5.370495e-02	2.653215e-03	4.963681e-01	5.635816e-02	4.937214e-01
4.055569232802592e-07	-2.571017e+01	-6.132154e-01	3.832339e+01	1.261322e+01	-5.323963e-02	3.118295e-03	4.964664e-01	5.635792e-02	4.933714e-01
4.415400466986630e-07	-2.136538e+01	-4.957813e+00	3.832320e+01	1.695781e+01	-5.276099e-02	3.596656e-03	4.957621e-01	5.635764e-02	4.922033e-01
5.135062935354706e-07	-1.238149e+01	-1.394133e+01	3.832282e+01	2.594133e+01	-5.145654e-02	4.900549e-03	4.925876e-01	5.635709e-02	4.877394e-01
5.503333023806900e-07	-7.717121e+00	-1.860551e+01	3.832263e+01	3.060551e+01	-5.026374e-02	6.093077e-03	4.900846e-01	5.635681e-02	4.840241e-01
5.726635970149108e-07	-4.867561e+00	-2.145496e+01	3.832252e+01	3.345496e+01	-4.896473e-02	7.391923e-03	4.881022e-01	5.635665e-02	4.807312e-01
5.861319421901490e-07	-3.145187e+00	-2.317727e+01	3.832246e+01	3.517727e+01	-4.754645e-02	8.810108e-03	4.867384e-01	5.635655e-02	4.779502e-01
5.996227416399380e-07	-1.418892e+00	-2.490350e+01	3.832240e+01	3.690350e+01	-4.503911e-02	1.131735e-02	4.852634e-01	5.635646e-02	4.739679e-01
6.058539594178125e-07	-6.219902e-01	-2.570037e+01	3.832236e+01	3.770037e+01	-4.291663e-02	1.343979e-02	4.845485e-01	5.635642e-02	4.711266e-01
6.097654386208462e-07	-1.221809e-01	-2.620017e+01	3.832235e+01	3.820017e+01	-4.081861e-02	1.553779e-02	4.840851e-01	5.635640e-02	4.685596e-01
6.119908017437892e-07	1.605186e-01	-2.648286e+01	3.832234e+01	3.848286e+01	-3.744311e-02	1.891328e-02	4.838170e-01	5.635638e-02	4.649130e-01
6.133671697425291e-07	3.292160e-01	-2.665155e+01	3.832233e+01	3.865155e+01	-2.595928e-02	3.039709e-02	4.836496e-01	5.635637e-02	4.532587e-01
6.141151845384663e-07	4.099045e-01	-2.673224e+01	3.832233e+01	3.873224e+01	-4.808025e-03	5.154835e-02	4.835581e-01	5.635637e-02	4.320161e-01
6.147074619114457e-07	4.608345e-01	-2.678317e+01	3.832233e+01	3.878317e+01	2.688483e-02	8.324121e-02	4.834854e-01	5.635637e-02	4.002546e-01
6.153816570972359e-07	5.056267e-01	-2.682796e+01	3.832234e+01	3.882796e+01	7.459800e-02	1.309544e-01	4.834025e-01	5.635638e-02	3.524637e-01
6.161608506749516e-07	5.443001e-01	-2.686665e+01	3.832235e+01	3.886665e+01	1.350731e-01	1.914295e-01	4.833065e-01	5.635639e-02	2.919051e-01
6.174867103816983e-07	5.910950e-01	-2.691347e+01	3.832238e+01	3.891347e+01	2.307640e-01	2.871204e-01	4.831430e-01	5.635643e-02	1.960778e-01
6.191859074911044e-07	6.318359e-01	-2.695426e+01	3.832242e+01	3.895426e+01	3.210591e-01	3.774156e-01	4.829330e-01	5.635650e-02	1.055710e-01
6.212963111901226e-07	6.644592e-01	-2.698696e+01	3.832250e+01	3.898696e+01	3.814872e-01	4.378439e-01	4.826720e-01	5.635662e-02	4.485046e-02
6.233401469643574e-07	6.846008e-01	-2.700718e+01	3.832258e+01	3.900718e+01	4.022640e-01	4.586207e-01	4.824189e-01	5.635673e-02	2.380317e-02
6.261268038904033e-07	7.021294e-01	-2.702482e+01	3.832269e+01	3.902482e+01	4.078520e-01	4.642089e-01	4.820736e-01	5.635690e-02	1.786539e-02
6.303152256734168e-07	7.190056e-01	-2.704187e+01	3.832286e+01	3.904187e+01	4.095166e-01	4.658737e-01	4.815542e-01	5.635715e-02	1.568104e-02
6.386920692394438e-07	7.388954e-01	-2.706210e+01	3.832321e+01	3.906210e+01	4.109509e-01	4.673085e-01	4.805148e-01	5.635766e-02	1.320749e-02
6.554457563784366e-07	7.609138e-01	-2.708481e+01	3.832390e+01	3.908481e+01	4.125667e-01	4.689254e-01	4.784344e-01	5.635867e-02	9.510915e-03
6.744489925297747e-07	7.743568e-01	-2.709904e+01	3.832468e+01	3.909904e+01	4.132071e-01	4.695669e-01	4.760736e-01	5.635983e-02	6.509238e-03
6.954192797586911e-07	7.821121e-01	-2.710766e+01	3.832555e+01	3.910766e+01	4.128037e-01	4.691648e-01	4.734674e-01	5.636110e-02	4.306669e-03
7.192388137011729e-07	7.868118e-01	-2.711334e+01	3.832653e+01	3.911334e+01	4.114442e-01	4.678068e-01	4.705065e-01	5.636254e-02	2.702863e-03
7.435945059627858e-07	7.891350e-01	-2.711666e+01	3.832753e+01	3.911666e+01	4.094247e-01	4.657887e-01	4.674786e-01	5.636401e-02	1.691082e-03
7.704482319695338e-07	7.901535e-01	-2.711878e+01	3.832862e+01	3.911878e+01	4.067408e-01	4.631065e-01	4.641401e-01	5.636562e-02	1.034019e-03
8.000233064214823e-07	7.904358e-01	-2.712026e+01	3.832982e+01	3.912026e+01	4.034725e-01	4.598399e-01	4.604632e-01	5.636739e-02	6.233951e-04
8.344469728110981e-07	7.902527e-01	-2.712146e+01	3.833120e+01	3.912146e+01	3.994461e-01	4.558155e-01	4.561837e-01	5.636942e-02	3.680607e-04
8.752034774753281e-07	7.897339e-01	-2.712255e+01	3.833282e+01	3.912255e+01	3.945287e-01	4.509006e-01	4.511171e-01	5.637179e-02	2.163362e-04
9.253506612627582e-07	7.888985e-01	-2.712368e+01	3.833478e+01	3.912368e+01	3.883796e-01	4.447542e-01	4.448835e-01	5.637467e-02	1.290256e-04
9.906154236072329e-07	7.876968e-01	-2.712498e+01	3.833728e+01	3.912498e+01	3.803144e-01	4.366928e-01	4.367714e-01	5.637835e-02	7.839501e-05
1.077603487942280e-06	7.860146e-01	-2.712654e+01	3.834052e+01	3.912654e+01	3.695278e-01	4.259109e-01	4.259607e-01	5.638312e-02	4.960016e-05
1.203733250076944e-06	7.834892e-01	-2.712854e+01	3.834505e+01	3.912854e+01	3.538669e-01	4.102567e-01	4.102885e-01	5.638978e-02	3.186061e-05
1.380315409825472e-06	7.798233e-01	-2.713089e+01	3.835107e+01	3.913089e+01	3.319338e-01	3.883325e-01	3.883531e-01	5.639863e-02	2.061314e-05
1.580315409824284e-06	7.754898e-01	-2.713293e+01	3.835744e+01	3.913293e+01	3.070945e-01	3.635025e-01	3.635168e-01	5.640800e-02	1.420862e-05
1.780315409823097e-06	7.709236e-01	-2.713426e+01	3.836333e+01	3.913426e+01	2.822628e-01	3.386795e-01	3.386900e-01	5.641667e-02	1.046055e-05
1.980315409821909e-06	7.660866e-01	-2.713482e+01	3.836873e+01	3.913482e+01	2.574412e-01	3.138658e-01	3.138736e-01	5.642461e-02	7.814680e-06
2.180315409820721e-06	7.609406e-01	-2.713457e+01	3.837363e+01	3.913457e+01	2.326309e-01	2.890627e-01	2.890684e-01	5.643181e-02	5.663163e-06
2.380315409819533e-06	7.554245e-01	-2.713346e+01	3.837804e+01	3.913346e+01	2.078330e-01	2.642713e-01	2.642751e-01	5.643829e-02	3.780526e-06
2.580315409818346e-06	7.494659e-01	-2.713141e+01	3.838195e+01	3.913141e+01	1.830484e-01	2.394925e-01	2.394945e-01	5.644404e-02	2.025503e-06
2.780315409817158e-06	7.429695e-01	-2.712833e+01	3.838536e+01	3.912833e+01	1.582782e-01	2.147272e-01	2.147275e-01	5.644906e-02	3.036148e-07
2.980315409815970e-06	7.358131e-01	-2.712409e+01	3.838828e+01	3.912409e+01	1.335233e-01	1.899766e-01	1.899752e-01	5.645335e-02	-1.462149e-06
3.180315409814782e-06	7.277985e-01	-2.711850e+01	3.839070e+01	3.911850e+01	1.087850e-01	1.652419e-01	1.652386e-01	5.645691e-02	-3.360577e-06
3.380315409813595e-06	7.186661e-01	-2.711130e+01	3.839263e+01	3.911130e+01	8.406482e-02	1.405246e-01	1.405190e-01	5.645975e-02	-5.511311e-06
3.580315409812407e-06	7.079735e-01	-2.710204e+01	3.839407e+01	3.910204e+01	5.936455e-02	1.158264e-01	1.158182e-01	5.646186e-02	-8.119352e-06
3.780315409811219e-06	6.949806e-01	-2.708998e+01	3.839500e+01	3.908998e+01	3.468684e-02	9.115008e-02	9.113839e-02	5.646324e-02	-1.158766e-05
3.980315409810031e-06	6.781998e-01	-2.707365e+01	3.839545e+01	3.907365e+01	1.003602e-02	6.649992e-02	6.648271e-02	5.646390e-02	-1.689371e-05
4.180315409808844e-06	6.533546e-01	-2.704876e+01	3.839540e+01	3.904876e+01	-1.457813e-02	4.188570e-02	4.185697e-02	5.646383e-02	-2.827985e-05
4.380315409807656e-06	6.141891e-01	-2.700913e+01	3.839494e+01	3.900913e+01	-3.914040e-02	1.732275e-02	1.726294e-02	5.646316e-02	-5.962889e-05
4.453901382123204e-06	5.893517e-01	-2.698401e+01	3.839466e+01	3.898401e+01	-4.814293e-02	8.319808e-03	8.226325e-03	5.646274e-02	-9.341019e-05
4.494591693930683e-06	5.661812e-01	-2.696064e+01	3.839446e+01	3.896064e+01	-5.308393e-02	3.378515e-03	3.235901e-03	5.646244e-02	-1.425598e-04
